! Generated by EMerge - 4-port S-parameters
! File generated: 2025-07-03 19:59 
! Substrate: RO4003C
! h = 0.508 mm
! Design parameters:
! W0 = 1.08 mm
! L_coupled = 22.75 mm
! W_coupled = 1 mm
! S_coupled = 0.3 mm
! L_feed = 10.0 mm
! L_trans = 1.0 mm
! Air box height = 10 mm
! Run time = 2.8918179790178935 min
# GHZ S MA R 50
1.000000e-01    1.556638e-02 7.410645e+01 9.965385e-01 -8.934023e+00 1.591382e-02 -9.913737e+01 3.588486e-03 7.709840e+01
                9.965384e-01 -8.934269e+00 1.557823e-02 7.387433e+01 3.588486e-03 7.706276e+01 1.591363e-02 -9.914239e+01
                1.591176e-02 -9.913699e+01 3.590522e-03 7.706580e+01 1.580834e-02 7.417248e+01 9.965346e-01 -8.940388e+00
                3.590544e-03 7.710114e+01 1.591159e-02 -9.914286e+01 9.965347e-01 -8.940304e+00 1.581250e-02 7.400831e+01
2.256410e-01    3.429179e-02 6.632977e+01 9.955338e-01 -2.014828e+01 3.569032e-02 -1.105907e+02 7.968944e-03 6.094706e+01
                9.955336e-01 -2.014884e+01 3.432130e-02 6.579241e+01 7.968925e-03 6.086565e+01 3.568818e-02 -1.106014e+02
                3.568567e-02 -1.105898e+02 7.973471e-03 6.087256e+01 3.482099e-02 6.628973e+01 9.955154e-01 -2.016238e+01
                7.973545e-03 6.095328e+01 3.568359e-02 -1.106025e+02 9.955154e-01 -2.016219e+01 3.483325e-02 6.591452e+01
3.512821e-01    5.162307e-02 5.593321e+01 9.938714e-01 -3.133969e+01 5.498284e-02 -1.219853e+02 1.206085e-02 4.493050e+01
                9.938712e-01 -3.134056e+01 5.167590e-02 5.508125e+01 1.206074e-02 4.480098e+01 5.497524e-02 -1.220006e+02
                5.497562e-02 -1.219840e+02 1.206769e-02 4.481185e+01 5.239453e-02 5.582496e+01 9.938312e-01 -3.136099e+01
                1.206791e-02 4.494031e+01 5.496815e-02 -1.220022e+02 9.938312e-01 -3.136068e+01 5.242108e-02 5.523330e+01
4.769231e-01    6.683074e-02 4.503602e+01 9.917260e-01 -4.249947e+01 7.357304e-02 -1.332982e+02 1.572477e-02 2.912385e+01
                9.917255e-01 -4.250066e+01 6.691481e-02 4.385136e+01 1.572437e-02 2.894231e+01 7.355557e-02 -1.333161e+02
                7.356327e-02 -1.332963e+02 1.573357e-02 2.895732e+01 6.777924e-02 4.486334e+01 9.916621e-01 -4.252728e+01
                1.573414e-02 2.913740e+01 7.354602e-02 -1.333184e+02 9.916620e-01 -4.252686e+01 6.782867e-02 4.404583e+01
6.025641e-01    7.933360e-02 3.400350e+01 9.893057e-01 -5.362315e+01 9.129547e-02 -1.445168e+02 1.884532e-02 1.360509e+01
                9.893049e-01 -5.362466e+01 7.945801e-02 3.245909e+01 1.884417e-02 1.336575e+01 9.126391e-02 -1.445354e+02
                9.128317e-02 -1.445144e+02 1.885545e-02 1.338513e+01 8.037761e-02 3.376201e+01 9.892223e-01 -5.365679e+01
                1.885687e-02 1.362260e+01 9.125197e-02 -1.445383e+02 9.892222e-01 -5.365626e+01 8.045971e-02 3.270513e+01
7.282051e-01    8.869437e-02 2.295338e+01 9.868196e-01 -6.471069e+01 1.080365e-01 -1.556401e+02 2.133483e-02 -1.539298e+00
                9.868184e-01 -6.471253e+01 8.886824e-02 2.101109e+01 2.133198e-02 -1.844594e+00 1.079878e-01 -1.556576e+02
                1.080217e-01 -1.556371e+02 2.134517e-02 -1.820516e+00 8.974106e-02 2.263335e+01 9.867264e-01 -6.474967e+01
                2.134843e-02 -1.517536e+00 1.079736e-01 -1.556609e+02 9.867264e-01 -6.474901e+01 8.986552e-02 2.131876e+01
8.538462e-01    9.462423e-02 1.193494e+01 9.844495e-01 -7.576597e+01 1.237231e-01 -1.666777e+02 2.313515e-02 -1.620444e+01
                9.844477e-01 -7.576815e+01 9.485577e-02 9.541850e+00 2.312877e-02 -1.658695e+01 1.236562e-01 -1.666922e+02
                1.237059e-01 -1.666741e+02 2.314375e-02 -1.655777e+01 9.557473e-02 1.152079e+01 9.843596e-01 -7.581010e+01
                2.315069e-02 -1.617807e+01 1.236397e-01 -1.666961e+02 9.843596e-01 -7.580930e+01 9.574986e-02 9.924151e+00
9.794872e-01    9.698066e-02 9.718443e-01 9.823296e-01 -8.679569e+01 1.383057e-01 -1.776470e+02 2.421938e-02 -3.025184e+01
                9.823270e-01 -8.679821e+01 9.727642e-02 -1.945855e+00 2.420619e-02 -3.072686e+01 1.382212e-01 -1.776574e+02
                1.382861e-01 -1.776427e+02 2.422289e-02 -3.069210e+01 9.773526e-02 4.401875e-01 9.822569e-01 -8.684515e+01
                2.423684e-02 -3.022045e+01 1.382026e-01 -1.776618e+02 9.822571e-01 -8.684421e+01 9.796698e-02 -1.470715e+00
1.105128e+00    9.576052e-02 -9.922283e+00 9.805376e-01 -9.780799e+01 1.517394e-01 1.714301e+02 2.459600e-02 -4.348708e+01
                9.805341e-01 -9.781088e+01 9.612525e-02 -1.346947e+01 2.457027e-02 -4.407491e+01 1.516397e-01 1.714245e+02
                1.517174e-01 1.714352e+02 2.458875e-02 -4.403402e+01 9.622383e-02 -1.060630e+01 9.804939e-01 -9.786335e+01
                2.461549e-02 -4.345026e+01 1.516192e-01 1.714195e+02 9.804945e-01 -9.786227e+01 9.651498e-02 -1.287468e+01
1.230769e+00    9.109104e-02 -2.073530e+01 9.790951e-01 -1.088111e+02 1.639694e-01 1.605312e+02 2.431825e-02 -5.562919e+01
                9.790905e-01 -1.088144e+02 9.152822e-02 -2.506593e+01 2.427021e-02 -5.635553e+01 1.638578e-01 1.605303e+02
                1.639453e-01 1.605371e+02 2.429074e-02 -5.630807e+01 9.117718e-02 -2.162475e+01 9.790876e-01 -1.088733e+02
                2.434006e-02 -5.558671e+01 1.638355e-01 1.605249e+02 9.790886e-01 -1.088720e+02 9.152729e-02 -2.431028e+01
1.356410e+00    8.321986e-02 -3.144893e+01 9.779766e-01 -1.198123e+02 1.749226e-01 1.496369e+02 2.350207e-02 -6.627540e+01
                9.779705e-01 -1.198160e+02 8.373339e-02 -3.680003e+01 2.341558e-02 -6.716889e+01 1.748022e-01 1.496404e+02
                1.748965e-01 1.496437e+02 2.343868e-02 -6.711484e+01 8.285758e-02 -3.262823e+01 9.780054e-01 -1.198823e+02
                2.352674e-02 -6.622761e+01 1.747784e-01 1.496345e+02 9.780071e-01 -1.198809e+02 8.326332e-02 -3.581717e+01
1.482051e+00    7.250417e-02 -4.202729e+01 9.771234e-01 -1.308169e+02 1.845074e-01 1.387336e+02 2.235632e-02 -7.488600e+01
                9.771155e-01 -1.308209e+02 7.310210e-02 -4.878914e+01 2.220578e-02 -7.596679e+01 1.843801e-01 1.387411e+02
                1.844795e-01 1.387414e+02 2.223232e-02 -7.590742e+01 7.164187e-02 -4.363995e+01 9.771814e-01 -1.308956e+02
                2.238468e-02 -7.483474e+01 1.843551e-01 1.387347e+02 9.771838e-01 -1.308941e+02 7.209844e-02 -4.746630e+01
1.607692e+00    5.939859e-02 -5.239069e+01 9.764603e-01 -1.418279e+02 1.926211e-01 1.278154e+02 2.122306e-02 -8.087726e+01
                9.764504e-01 -1.418323e+02 6.010135e-02 -6.127137e+01 2.097152e-02 -8.212462e+01 1.924874e-01 1.278265e+02
                1.925917e-01 1.278242e+02 2.100260e-02 -8.206409e+01 5.800863e-02 -5.470644e+01 9.765334e-01 -1.419162e+02
                2.125606e-02 -8.082739e+01 1.924616e-01 1.278195e+02 9.765369e-01 -1.419145e+02 5.851286e-02 -5.940209e+01
1.733333e+00    4.444188e-02 -6.233348e+01 9.759125e-01 -1.528462e+02 1.991639e-01 1.168839e+02 2.059924e-02 -8.400954e+01
                9.759003e-01 -1.528509e+02 4.530385e-02 -7.482365e+01 2.020341e-02 -8.530571e+01 1.990228e-01 1.168988e+02
                1.991332e-01 1.168938e+02 2.023998e-02 -8.525268e+01 4.252279e-02 -6.594538e+01 9.759819e-01 -1.529445e+02
                2.063752e-02 -8.396998e+01 1.989967e-01 1.168913e+02 9.759867e-01 -1.529426e+02 4.308110e-02 -7.198729e+01
1.858974e+00    2.824780e-02 -7.115095e+01 9.754199e-01 -1.638705e+02 2.040543e-01 1.059476e+02 2.105549e-02 -8.509761e+01
                9.754050e-01 -1.638757e+02 2.943571e-02 -9.130151e+01 2.048420e-02 -8.621342e+01 2.039042e-01 1.059671e+02
                2.040228e-01 1.059587e+02 2.052620e-02 -8.617858e+01 2.581917e-02 -7.778793e+01 9.754649e-01 -1.639787e+02
                2.109862e-02 -8.507796e+01 2.038782e-01 1.059591e+02 9.754713e-01 -1.639766e+02 2.647783e-02 -8.650970e+01
1.984615e+00    1.156943e-02 -7.403994e+01 9.749473e-01 -1.748985e+02 2.072437e-01 9.501895e+01 2.299296e-02 -8.617749e+01
                9.749293e-01 -1.749040e+02 1.388313e-02 -1.209349e+02 2.224633e-02 -8.690605e+01 2.070837e-01 9.504481e+01
                2.072118e-01 9.503143e+01 2.229244e-02 -8.689380e+01 8.615407e-03 -9.412395e+01 9.749497e-01 -1.750160e+02
                2.303941e-02 -8.618017e+01 2.070585e-01 9.503616e+01 9.749578e-01 -1.750137e+02 9.743695e-03 -1.131595e+02
2.110256e+00    6.164999e-03 5.639928e+01 9.744904e-01 1.740730e+02 2.087255e-01 8.411174e+01 2.643379e-02 -8.923559e+01
                9.744690e-01 1.740671e+02 9.360111e-03 1.373853e+02 2.553530e-02 -8.954009e+01 2.085570e-01 8.414652e+01
                2.086937e-01 8.412569e+01 2.558399e-02 -8.954507e+01 8.693733e-03 9.209403e+01 9.744379e-01 1.739473e+02
                2.648206e-02 -8.925419e+01 2.085331e-01 8.413717e+01 9.744480e-01 1.739496e+02 9.168227e-03 1.055258e+02
2.235897e+00    2.184862e-02 6.420979e+01 9.740770e-01 1.630468e+02 2.085365e-01 7.323741e+01 3.109711e-02 -9.500356e+01
                9.740519e-01 1.630405e+02 2.277425e-02 9.063131e+01 3.006985e-02 -9.497275e+01 2.083650e-01 7.328432e+01
                2.085053e-01 7.325295e+01 3.012035e-02 -9.498642e+01 2.492102e-02 7.605068e+01 9.739662e-01 1.629140e+02
                3.114657e-02 -9.502969e+01 2.083430e-01 7.327415e+01 9.739785e-01 1.629166e+02 2.490271e-02 7.777904e+01
2.361538e+00    3.657002e-02 5.630829e+01 9.737629e-01 1.520248e+02 2.067497e-01 6.240174e+01 3.661459e-02 -1.031950e+02
                9.737337e-01 1.520182e+02 3.703281e-02 7.186495e+01 3.547053e-02 -1.029329e+02 2.065859e-01 6.246430e+01
                2.067196e-01 6.241901e+01 3.552280e-02 -1.029490e+02 3.970111e-02 6.446175e+01 9.736009e-01 1.518863e+02
                3.666533e-02 -1.032228e+02 2.065662e-01 6.245318e+01 9.736157e-01 1.518890e+02 3.961448e-02 6.311019e+01
2.487179e+00    4.940302e-02 4.668600e+01 9.736240e-01 1.410074e+02 2.034604e-01 5.160232e+01 4.265486e-02 -1.132100e+02
                9.735904e-01 1.410005e+02 4.968093e-02 5.780535e+01 4.139678e-02 -1.127905e+02 2.033204e-01 5.168381e+01
                2.034322e-01 5.162148e+01 4.145112e-02 -1.128056e+02 5.238217e-02 5.360027e+01 9.734279e-01 1.408641e+02
                4.270728e-02 -1.132366e+02 2.033036e-01 5.167157e+01 9.734453e-01 1.408669e+02 5.228936e-02 5.042087e+01
2.612821e+00    5.979128e-02 3.652961e+01 9.737445e-01 1.299929e+02 1.987681e-01 4.082690e+01 4.894908e-02 -1.245023e+02
                9.737063e-01 1.299856e+02 5.996878e-02 4.531057e+01 4.757503e-02 -1.239679e+02 1.986727e-01 4.092978e+01
                1.987422e-01 4.084811e+01 4.763183e-02 -1.239805e+02 6.242067e-02 4.306463e+01 9.735388e-01 1.298451e+02
                4.900365e-02 -1.245263e+02 1.986591e-01 4.091621e+01 9.735591e-01 1.298481e+02 6.233547e-02 3.835111e+01
2.738462e+00    6.727904e-02 2.613425e+01 9.742028e-01 1.189772e+02 1.927575e-01 3.005319e+01 5.528040e-02 -1.366622e+02
                9.741597e-01 1.189696e+02 6.739025e-02 3.355445e+01 5.378712e-02 -1.360336e+02 1.927305e-01 3.017845e+01
                1.927345e-01 3.007662e+01 5.384674e-02 -1.360431e+02 6.936549e-02 3.277549e+01 9.740155e-01 1.188247e+02
                5.533754e-02 -1.366831e+02 1.927207e-01 3.016329e+01 9.740388e-01 1.188278e+02 6.928209e-02 2.650443e+01
2.864103e+00    7.150826e-02 1.560523e+01 9.750564e-01 1.079543e+02 1.854844e-01 1.924990e+01 6.146880e-02 -1.493994e+02
                9.750080e-01 1.079464e+02 7.157095e-02 2.224645e+01 5.985414e-02 -1.486834e+02 1.855497e-01 1.939653e+01
                1.854647e-01 1.927577e+01 5.991686e-02 -1.486895e+02 7.287108e-02 2.274991e+01 9.749131e-01 1.077959e+02
                6.152888e-02 -1.494172e+02 1.855439e-01 1.937946e+01 9.749396e-01 1.077991e+02 7.276761e-02 1.469807e+01
2.989744e+00    7.222694e-02 4.988008e+00 9.763276e-01 9.691657e+01 1.769670e-01 8.378995e+00 6.735941e-02 -1.625080e+02
                9.762738e-01 9.690837e+01 7.225619e-02 1.128876e+01 6.562424e-02 -1.617023e+02 1.771456e-01 8.543598e+00
                1.769510e-01 8.407570e+00 6.569029e-02 -1.617052e+02 7.271264e-02 1.307630e+01 9.762460e-01 9.675039e+01
                6.742271e-02 -1.625229e+02 1.771443e-01 8.524203e+00 9.762758e-01 9.675366e+01 7.254653e-02 2.802769e+00
3.115385e+00    6.929822e-02 -5.693303e+00 9.779929e-01 8.585555e+01 1.671873e-01 -2.601552e+00 7.281524e-02 -1.758368e+02
                9.779333e-01 8.584707e+01 6.931595e-02 6.965592e-01 7.096543e-02 -1.749324e+02 1.674941e-01 -2.424958e+00
                1.671752e-01 -2.569939e+00 7.103497e-02 -1.749321e+02 6.880557e-02 3.949714e+00 9.779765e-01 8.567901e+01
                7.288201e-02 -1.758490e+02 1.674975e-01 -2.447200e+00 9.780097e-01 8.568234e+01 6.850017e-02 -9.322834e+00
3.241026e+00    6.270962e-02 -1.641832e+01 9.799760e-01 7.476299e+01 1.561008e-01 -1.373517e+01 7.771472e-02 1.707342e+02
                9.799106e-01 7.475425e+01 6.275696e-02 -9.386169e+00 7.576329e-02 1.717512e+02 1.565419e-01 -1.355514e+01
                1.560929e-01 -1.370006e+01 7.583641e-02 1.717543e+02 6.123823e-02 -4.212225e+00 9.800099e-01 7.457331e+01
                7.778510e-02 1.707245e+02 1.565504e-01 -1.358092e+01 9.800466e-01 7.457670e+01 6.065085e-02 -2.190379e+01
3.366667e+00    5.258247e-02 -2.715334e+01 9.821491e-01 6.363207e+01 1.436545e-01 -2.506551e+01 8.195409e-02 1.573091e+02
                9.820776e-01 6.362310e+01 5.274554e-02 -1.855552e+01 7.992376e-02 1.584564e+02 1.442260e-01 -2.489311e+01
                1.436507e-01 -2.502626e+01 8.000052e-02 1.584621e+02 5.034827e-02 -1.042296e+01 9.821971e-01 6.342669e+01
                8.202820e-02 1.573014e+02 1.442398e-01 -2.492338e+01 9.822373e-01 6.343011e+01 4.918535e-02 -3.542872e+01
3.492308e+00    3.918068e-02 -3.780959e+01 9.843403e-01 5.245858e+01 1.298099e-01 -3.663855e+01 8.545524e-02 1.439875e+02
                9.842627e-01 5.244938e+01 3.966846e-02 -2.563594e+01 8.338115e-02 1.452859e+02 1.304974e-01 -3.648742e+01
                1.298102e-01 -3.659418e+01 8.346154e-02 1.452939e+02 3.698165e-02 -1.189261e+01 9.843460e-01 5.223561e+01
                8.553311e-02 1.439815e+02 1.305169e-01 -3.652349e+01 9.843897e-01 5.223905e+01 3.451991e-02 -5.137946e+01
3.617949e+00    2.291765e-02 -4.801775e+01 9.863513e-01 4.124182e+01 1.145671e-01 -4.851114e+01 8.817805e-02 1.308711e+02
                9.862675e-01 4.123243e+01 2.442630e-02 -2.599555e+01 8.611066e-02 1.323431e+02 1.153472e-01 -4.839807e+01
                1.145710e-01 -4.846017e+01 8.619464e-02 1.323530e+02 2.380564e-02 1.078469e+00 9.862423e-01 4.100061e+01
                8.825966e-02 1.308664e+02 1.153727e-01 -4.844187e+01 9.862894e-01 4.100404e+01 1.773113e-02 -7.752258e+01
3.743590e+00    4.396737e-03 -5.092476e+01 9.879808e-01 2.998519e+01 9.798511e-02 -6.077374e+01 9.013600e-02 1.180659e+02
                9.878909e-01 2.997561e+01 1.166073e-02 1.021575e+01 8.814351e-02 1.197330e+02 9.882817e-02 -6.072034e+01
                9.799200e-02 -6.071373e+01 8.823099e-02 1.197445e+02 2.091539e-02 4.358708e+01 9.876770e-01 2.972663e+01
                9.022123e-02 1.180621e+02 9.886003e-02 -6.077486e+01 9.877273e-01 2.973005e+01 9.764324e-03 -1.790162e+02
3.869231e+00    1.588148e-02 1.051450e+02 9.890539e-01 1.869604e+01 8.019654e-02 -7.360845e+01 9.141159e-02 1.056791e+02
                9.889580e-01 1.868630e+01 2.062966e-02 7.057496e+01 8.958130e-02 1.075581e+02 8.107028e-02 -7.364541e+01
                8.020539e-02 -7.353507e+01 8.967217e-02 1.075707e+02 3.483184e-02 6.879302e+01 9.884784e-01 1.842282e+01
                9.150026e-02 1.056756e+02 8.110923e-02 -7.371564e+01 9.885317e-01 1.842620e+01 2.781090e-02 1.259776e+02
3.994872e+00    3.687962e-02 9.563941e+01 9.894491e-01 7.384926e+00 6.141968e-02 -8.745801e+01 9.216736e-02 9.380983e+01
                9.893475e-01 7.375030e+00 3.999345e-02 7.582794e+01 9.060479e-02 9.590641e+01 6.229505e-02 -8.763521e+01
                6.142860e-02 -8.736257e+01 9.069890e-02 9.591942e+01 5.479222e-02 7.123664e+01 9.885407e-01 7.101404e+00
                9.225919e-02 9.380594e+01 6.234267e-02 -8.773033e+01 9.885967e-01 7.104728e+00 4.965550e-02 1.063128e+02
4.120513e+00    5.783544e-02 8.501773e+01 9.891189e-01 -3.935901e+00 4.200350e-02 -1.036642e+02 9.264720e-02 8.253226e+01
                9.890117e-01 -3.945937e+00 6.046324e-02 6.995308e+01 9.147156e-02 8.483294e+01 4.286593e-02 -1.040734e+02
                4.200822e-02 -1.035256e+02 9.156871e-02 8.484578e+01 7.584074e-02 6.631932e+01 9.878434e-01 -4.224027e+00
                9.274180e-02 8.252728e+01 4.292644e-02 -1.042126e+02 9.879019e-01 -4.220767e+00 7.163340e-02 9.160376e+01
4.246154e+00    7.785863e-02 7.422813e+01 9.880962e-01 -1.525433e+01 2.278266e-02 -1.282663e+02 9.316316e-02 7.187385e+01
                9.879837e-01 -1.526450e+01 8.027595e-02 6.114399e+01 9.249770e-02 7.433772e+01 2.366957e-02 -1.290040e+02
                2.276861e-02 -1.280168e+02 9.259768e-02 7.434976e+01 9.613811e-02 5.866326e+01 9.864550e-01 -1.554064e+01
                9.326003e-02 7.186707e+01 2.375706e-02 -1.292243e+02 9.865155e-01 -1.553745e+01 9.254303e-02 7.844257e+01
4.371795e+00    9.610096e-02 6.346071e+01 9.864852e-01 -2.656030e+01 1.058302e-02 1.542462e+02 9.406486e-02 6.179226e+01
                9.863677e-01 -2.657060e+01 9.839323e-02 5.120394e+01 9.402196e-02 6.434627e+01 1.140331e-02 1.569520e+02
                1.048976e-02 1.544127e+02 9.412449e-02 6.435700e+01 1.145123e-01 4.978813e+01 9.845186e-01 -2.683838e+01
                9.416342e-02 6.178311e+01 1.152943e-02 1.571348e+02 9.845806e-01 -2.683527e+01 1.114265e-01 6.599825e+01
4.497436e+00    1.118023e-01 5.280649e+01 9.844376e-01 -3.784720e+01 2.411131e-02 8.230481e+01 9.569303e-02 5.216206e+01
                9.843154e-01 -3.785762e+01 1.139782e-01 4.075061e+01 9.635605e-02 5.470479e+01 2.430814e-02 8.469663e+01
                2.403816e-02 8.215772e+01 9.646086e-02 5.471393e+01 1.300524e-01 4.033004e+01 9.822231e-01 -3.811148e+01
                9.579264e-02 5.215022e+01 2.433913e-02 8.500683e+01 9.822865e-01 -3.810845e+01 1.274606e-01 5.398480e+01
4.623077e+00    1.243313e-01 4.233497e+01 9.821206e-01 -4.911257e+01 4.396297e-02 5.874419e+01 9.832548e-02 4.278247e+01
                9.819939e-01 -4.912312e+01 1.263478e-01 3.006058e+01 9.973268e-02 4.519881e+01 4.421105e-02 6.017184e+01
                4.390314e-02 5.865117e+01 9.983951e-02 4.520638e+01 1.420410e-01 3.061367e+01 9.797662e-01 -4.935908e+01
                9.842556e-02 4.276800e+01 4.421185e-02 6.035089e+01 9.798305e-01 -4.935613e+01 1.399662e-01 4.228835e+01
4.748718e+00    1.332157e-01 3.211533e+01 9.796840e-01 -6.035786e+01 6.438461e-02 4.280727e+01 1.021302e-01 3.341106e+01
                9.795531e-01 -6.036855e+01 1.349776e-01 1.928481e+01 1.042666e-01 3.559368e+01 6.486399e-02 4.385324e+01
                6.432929e-02 4.274378e+01 1.043754e-01 3.560001e+01 1.499482e-01 2.083816e+01 9.773172e-01 -6.058479e+01
                1.022303e-01 3.339441e+01 6.485347e-02 4.397650e+01 9.773822e-01 -6.058190e+01 1.484243e-01 3.086562e+01
4.874359e+00    1.381632e-01 2.222877e+01 9.772343e-01 -7.158740e+01 8.471197e-02 2.903028e+01 1.071404e-01 2.381299e+01
                9.770994e-01 -7.159824e+01 1.395123e-01 8.523091e+00 1.099407e-01 2.568144e+01 8.551965e-02 2.986711e+01
                8.465839e-02 2.898361e+01 1.100513e-01 2.568709e+01 1.534367e-01 1.115348e+01 9.749889e-01 -7.179546e+01
                1.072404e-01 2.379488e+01 8.550347e-02 2.996065e+01 9.750543e-01 -7.179264e+01 1.524879e-01 1.971158e+01
5.000000e+00    1.390767e-01 1.278118e+01 9.748208e-01 -8.280683e+01 1.046856e-01 1.611305e+01 1.132568e-01 1.380504e+01
                9.746821e-01 -8.281784e+01 1.397715e-01 -2.142074e+00 1.166169e-01 1.531477e+01 1.059043e-01 1.680525e+01
                1.046326e-01 1.607707e+01 1.167295e-01 1.532035e+01 1.523687e-01 1.702216e+00 9.728223e-01 -8.299934e+01
                1.133567e-01 1.378628e+01 1.058848e-01 1.688026e+01 9.728879e-01 -8.299657e+01 1.519885e-01 8.851455e+00
