! Generated on: 2025-06-25 17:51:29
! Simulation execution time: 0.00 minutes
! Project: {project_name}
! Simulation software: EMerge
# Hz S RI R 50
1.000000e+08 4.716161e-03 1.690883e-02 9.833747e-01 -1.610910e-01 2.863894e-03 1.699498e-02 9.927562e-04 4.195010e-03 
9.833747e-01 -1.610901e-01 4.742473e-03 1.690532e-02 -9.904953e-04 -4.195604e-03 -2.857858e-03 -1.699578e-02 
2.864225e-03 1.699657e-02 -9.902674e-04 -4.193996e-03 4.669109e-03 1.668039e-02 -9.833641e-01 1.611796e-01 
9.925240e-04 4.193420e-03 -2.858027e-03 -1.699742e-02 -9.833648e-01 1.611756e-01 4.718151e-03 1.667673e-02 

3.578947e+08 3.476566e-02 4.776055e-02 8.306635e-01 -5.443013e-01 3.386908e-02 5.005626e-02 1.080229e-02 9.953456e-03 
8.306650e-01 -5.442982e-01 3.504043e-02 4.758658e-02 -1.078374e-02 -9.976402e-03 -3.379878e-02 -5.009411e-02 
3.387309e-02 5.006075e-02 -1.078085e-02 -9.971226e-03 3.422668e-02 4.716058e-02 -8.305188e-01 5.446061e-01 
1.079941e-02 9.948417e-03 -3.380108e-02 -5.009988e-02 -8.305270e-01 5.445942e-01 3.474488e-02 4.683549e-02 

6.157895e+08 7.779072e-02 4.523446e-02 5.378208e-01 -8.281871e-01 8.491322e-02 5.269013e-02 2.245963e-02 3.825707e-03 
5.378254e-01 -8.281831e-01 7.828547e-02 4.450032e-02 -2.245562e-02 -3.910528e-03 -8.475762e-02 -5.287850e-02 
8.492373e-02 5.269378e-02 -2.244741e-02 -3.903862e-03 7.655319e-02 4.485154e-02 -5.373597e-01 8.286180e-01 
2.245166e-02 3.819319e-03 -8.476507e-02 -5.288754e-02 -5.373808e-01 8.286054e-01 7.749264e-02 4.342290e-02 

8.736842e+08 1.047744e-01 1.162644e-02 1.606565e-01 -9.686560e-01 1.329580e-01 1.915777e-02 2.567129e-02 -1.009936e-02 
1.606649e-01 -9.686531e-01 1.050595e-01 1.008939e-02 -2.576135e-02 9.961571e-03 -1.328194e-01 -1.964163e-02 
1.329752e-01 1.915514e-02 -2.574625e-02 9.965968e-03 1.031586e-01 1.206031e-02 -1.597421e-01 9.689674e-01 
2.565689e-02 -1.010369e-02 -1.328354e-01 -1.965110e-02 -1.597762e-01 9.689635e-01 1.036702e-01 8.943389e-03 

1.131579e+09 9.889525e-02 -3.096351e-02 -2.373606e-01 -9.486137e-01 1.574435e-01 -4.249181e-02 1.870013e-02 -2.191563e-02 
-2.373487e-01 -9.486144e-01 9.840937e-02 -3.308623e-02 -1.894640e-02 2.181982e-02 -1.575669e-01 4.165408e-02 
1.574640e-01 -4.250648e-02 -1.892521e-02 2.181693e-02 9.762962e-02 -2.947623e-02 2.386661e-01 9.484510e-01 
1.867978e-02 -2.191345e-02 -1.575935e-01 4.164984e-02 2.386244e-01 9.484640e-01 9.645292e-02 -3.405419e-02 

1.389474e+09 6.456328e-02 -5.633497e-02 -5.937955e-01 -7.742454e-01 1.456635e-01 -1.151123e-01 8.357730e-03 -2.576756e-02 
-5.937819e-01 -7.742522e-01 6.305912e-02 -5.838116e-02 -8.725382e-03 2.586035e-02 -1.463447e-01 1.140596e-01 
1.456800e-01 -1.151430e-01 -8.702350e-03 2.584549e-02 6.445854e-02 -5.414284e-02 5.951662e-01 7.733338e-01 
8.334814e-03 -2.575424e-02 -1.463802e-01 1.140683e-01 5.951265e-01 7.733684e-01 6.066020e-02 -5.900503e-02 

1.647368e+09 2.293842e-02 -4.996625e-02 -8.523044e-01 -4.732585e-01 9.572406e-02 -1.769688e-01 2.194021e-03 -2.466522e-02 
-8.522926e-01 -4.732730e-01 2.078965e-02 -5.121768e-02 -2.520884e-03 2.504856e-02 -9.715556e-02 1.760444e-01 
9.572606e-02 -1.770150e-01 -2.503521e-03 2.501991e-02 2.445839e-02 -4.798327e-02 8.532750e-01 4.715897e-01 
2.175329e-03 -2.463807e-02 -9.719317e-02 1.760733e-01 8.532486e-01 4.716452e-01 1.807849e-02 -5.145284e-02 

1.905263e+09 -1.434988e-03 -1.672344e-02 -9.699324e-01 -9.380144e-02 1.852580e-02 -2.079311e-01 4.367397e-04 -2.648803e-02 
-9.699268e-01 -9.382293e-02 -3.341126e-03 -1.695440e-02 -4.929046e-04 2.711674e-02 -2.068458e-02 2.075903e-01 
1.850277e-02 -2.079855e-01 -4.896725e-04 2.707763e-02 1.458562e-03 -1.610263e-02 9.701271e-01 9.164879e-02 
4.310454e-04 -2.644906e-02 -2.071264e-02 2.076423e-01 9.701246e-01 9.171852e-02 -6.340914e-03 -1.681795e-02 

2.163158e+09 4.841405e-03 2.283688e-02 -9.262388e-01 3.012158e-01 -6.475070e-02 -1.976145e-01 -4.748115e-03 -3.478721e-02 
-9.262435e-01 3.011905e-01 4.031155e-03 2.304888e-02 5.126814e-03 3.543952e-02 6.214695e-02 1.983022e-01 
-6.480490e-02 -1.976634e-01 5.110357e-03 3.539850e-02 8.074326e-03 2.125971e-02 9.255035e-01 -3.034630e-01 
-4.733799e-03 -3.474427e-02 6.214157e-02 1.983732e-01 9.255315e-01 -3.033903e-01 6.507676e-04 2.363907e-02 

2.421053e+09 3.644680e-02 4.518001e-02 -7.287775e-01 6.457013e-01 -1.312184e-01 -1.500441e-01 -2.136655e-02 -4.328829e-02 
-7.287946e-01 6.456777e-01 3.689380e-02 4.468922e-02 2.215322e-02 4.365192e-02 1.287148e-01 1.520592e-01 
-1.313018e-01 -1.500707e-01 2.211743e-02 4.361976e-02 3.855920e-02 4.138659e-02 7.271144e-01 -6.476918e-01 
-2.133101e-02 -4.325295e-02 1.287424e-01 1.521380e-01 7.271740e-01 -6.476300e-01 3.309110e-02 4.602661e-02 

2.678947e+09 7.306145e-02 3.797132e-02 -4.109770e-01 8.833372e-01 -1.653856e-01 -8.059895e-02 -4.855532e-02 -3.994284e-02 
-4.110055e-01 8.833219e-01 7.395420e-02 3.576933e-02 4.950403e-02 3.977499e-02 1.637191e-01 8.392089e-02 
-1.654870e-01 -8.058820e-02 4.945522e-02 3.976046e-02 7.279928e-02 3.290351e-02 4.084314e-01 -8.847346e-01 
-4.850447e-02 -3.992564e-02 1.637842e-01 8.399184e-02 4.085177e-01 -8.846976e-01 6.996162e-02 3.827161e-02 

2.936842e+09 9.197577e-02 7.258007e-03 -2.421719e-02 9.761804e-01 -1.625895e-01 -8.776605e-03 -7.500061e-02 -1.675974e-02 
-2.425246e-02 9.761789e-01 9.188317e-02 3.203861e-03 7.573986e-02 1.602792e-02 1.624717e-01 1.292949e-02 
-1.626913e-01 -8.719850e-03 7.568749e-02 1.603488e-02 8.888757e-02 2.515630e-03 2.092883e-02 -9.765505e-01 
-7.494499e-02 -1.676594e-02 1.625717e-01 1.297506e-02 2.103102e-02 -9.765495e-01 8.829996e-02 7.150541e-03 

3.194737e+09 8.197070e-02 -2.641645e-02 3.704989e-01 9.077395e-01 -1.277231e-01 4.707448e-02 -8.580231e-02 2.316905e-02 
3.704641e-01 9.077545e-01 7.965959e-02 -3.133110e-02 8.600521e-02 -2.424120e-02 1.295216e-01 -4.297118e-02 
-1.278044e-01 4.717724e-02 8.595827e-02 -2.421395e-02 7.671296e-02 -2.921175e-02 -3.740928e-01 -9.065983e-01 
-8.575256e-02 2.314059e-02 1.296463e-01 -4.296810e-02 -3.739901e-01 -9.066402e-01 7.732290e-02 -2.609450e-02 

3.452632e+09 5.049426e-02 -4.070209e-02 7.086386e-01 6.844824e-01 -7.398814e-02 7.263624e-02 -7.216129e-02 6.651265e-02 
7.086126e-01 6.845124e-01 4.574248e-02 -4.477218e-02 7.171566e-02 -6.752777e-02 7.750087e-02 -6.957697e-02 
-7.402862e-02 7.277548e-02 7.168039e-02 -6.748418e-02 4.466808e-02 -4.067223e-02 -7.117145e-01 -6.815994e-01 
-7.212451e-02 6.646702e-02 7.763079e-02 -6.962966e-02 -7.116299e-01 -6.816846e-01 4.537659e-02 -3.901287e-02 

3.710526e+09 1.948623e-02 -2.611534e-02 9.293435e-01 3.387790e-01 -2.187313e-02 6.193676e-02 -3.698768e-02 9.775948e-02 
9.293325e-01 3.388184e-01 1.337859e-02 -2.785952e-02 3.607108e-02 -9.834021e-02 2.636518e-02 -6.064154e-02 
-2.185777e-02 6.209409e-02 3.605135e-02 -9.828431e-02 1.492163e-02 -2.367071e-02 -9.309551e-01 -3.345009e-01 
-3.696726e-02 9.770174e-02 2.647306e-02 -6.075394e-02 -9.309079e-01 -3.346214e-01 1.510427e-02 -2.283739e-02 

3.968421e+09 1.065191e-02 6.609692e-03 9.880660e-01 -7.057780e-02 6.318075e-03 2.281680e-02 8.188479e-03 1.086663e-01 
9.880723e-01 -7.053700e-02 5.074678e-03 7.520555e-03 -9.206978e-03 -1.086593e-01 -1.827492e-03 -2.347486e-02 
6.394998e-03 2.296805e-02 -9.207182e-03 -1.085944e-01 8.388221e-03 9.901932e-03 -9.876305e-01 7.536458e-02 
8.189442e-03 1.085995e-01 -1.771749e-03 -2.363591e-02 -9.876363e-01 7.522602e-02 8.071830e-03 1.060034e-02 

4.226316e+09 2.923786e-02 3.386206e-02 8.711536e-01 -4.678225e-01 -2.886779e-03 -2.312789e-02 5.263759e-02 1.005917e-01 
8.711751e-01 -4.677874e-01 2.579195e-02 3.633182e-02 -5.342682e-02 -1.001222e-01 6.505517e-03 2.086326e-02 
-2.753688e-03 -2.300725e-02 -5.340147e-02 -1.000532e-01 2.887647e-02 3.620369e-02 -8.686910e-01 4.721258e-01 
5.261301e-02 1.005199e-01 6.485587e-03 2.068114e-02 -8.687569e-01 4.719942e-01 2.851346e-02 3.705880e-02 

4.484211e+09 6.017226e-02 3.746318e-02 6.015671e-01 -7.792689e-01 -4.604126e-02 -4.969398e-02 9.213048e-02 7.761860e-02 
6.015998e-01 -7.792436e-01 5.921633e-02 3.961764e-02 -9.257039e-02 -7.693898e-02 4.828228e-02 4.651268e-02 
-4.586666e-02 -4.962376e-02 -9.251330e-02 -7.687642e-02 6.015980e-02 3.797019e-02 -5.974818e-01 7.823599e-01 
9.207291e-02 7.755203e-02 4.817914e-02 4.634899e-02 -5.976020e-01 7.822627e-01 6.015616e-02 3.873527e-02 

4.742105e+09 8.094093e-02 1.832973e-02 2.311866e-01 -9.509183e-01 -1.037847e-01 -3.815284e-02 1.247304e-01 3.970187e-02 
2.312270e-01 -9.509046e-01 8.143675e-02 1.866315e-02 -1.248797e-01 -3.898343e-02 1.045908e-01 3.481138e-02 
-1.035891e-01 -3.814579e-02 -1.247904e-01 -3.894476e-02 7.961751e-02 1.758905e-02 -2.259673e-01 9.522885e-01 
1.246382e-01 3.965900e-02 1.044188e-01 3.470789e-02 -2.261228e-01 9.522489e-01 7.992669e-02 1.773998e-02 

5.000000e+09 7.943245e-02 -6.176045e-03 -1.729005e-01 -9.567242e-01 -1.485979e-01 1.484689e-02 1.432655e-01 -1.501519e-02 
-1.728547e-01 -9.567241e-01 7.967803e-02 -7.930113e-03 -1.431843e-01 1.574565e-02 1.482660e-01 -1.777717e-02 
-1.484052e-01 1.478582e-02 -1.430743e-01 1.574107e-02 7.615839e-02 -6.483296e-03 1.786387e-01 9.558940e-01 
1.431504e-01 -1.501334e-02 1.480619e-01 -1.778880e-02 1.784771e-01 9.559238e-01 7.621883e-02 -7.268453e-03 

