! Generated by EMerge - 4-port S-parameters
! File generated: 2026-02-14 16:36 
! Substrate: RO4003C
! h = 0.508 mm
! Design parameters:
! W0 = 1.08 mm
! L_coupled = 22.75 mm
! W_coupled = 1.0 mm
! S_coupled = 0.3 mm
! L_feed = 10.0 mm
! L_trans = 1.0 mm
! Air box height = 10 mm
! Run time = 1.03 min
# GHZ S RI R 50
1.000000e-01    1.462969e-02 1.352354e-02 9.737284e-01 -1.532292e-01 2.538443e-03 1.571513e-02 -7.518386e-04 -3.266493e-03
                9.737285e-01 -1.532285e-01 1.464638e-02 1.352066e-02 -7.551103e-04 -3.265756e-03 2.533231e-03 1.571594e-02
                2.537473e-03 1.570938e-02 -7.559404e-04 -3.271543e-03 1.466311e-02 1.365243e-02 9.737337e-01 -1.531842e-01
                -7.526694e-04 -3.272276e-03 2.532507e-03 1.571015e-02 9.737337e-01 -1.531847e-01 1.465416e-02 1.365387e-02
2.256410e-01    2.333338e-02 2.828119e-02 9.241716e-01 -3.394608e-01 1.256954e-02 3.341591e-02 -3.606350e-03 -6.508754e-03
                9.241721e-01 -3.394595e-01 2.341411e-02 2.825053e-02 -3.621317e-03 -6.500653e-03 1.254438e-02 3.342503e-02
                1.256472e-02 3.340367e-02 -3.625487e-03 -6.513224e-03 2.349429e-02 2.853065e-02 9.241990e-01 -3.393599e-01
                -3.610523e-03 -6.521317e-03 1.254074e-02 3.341235e-02 9.241987e-01 -3.393610e-01 2.345068e-02 2.854750e-02
3.512821e-01    3.714914e-02 3.832193e-02 8.390721e-01 -5.116548e-01 2.915077e-02 4.665151e-02 -7.942640e-03 -7.976450e-03
                8.390735e-01 -5.116530e-01 3.732717e-02 3.821053e-02 -7.972078e-03 -7.947869e-03 2.909550e-02 4.668465e-02
                2.913947e-02 4.663442e-02 -7.982026e-03 -7.966103e-03 3.750460e-02 3.860389e-02 8.391420e-01 -5.115014e-01
                -7.952596e-03 -7.994669e-03 2.908679e-02 4.666596e-02 8.391412e-01 -5.115029e-01 3.741028e-02 3.866492e-02
4.769231e-01    5.374324e-02 4.204474e-02 7.223402e-01 -6.630835e-01 5.050967e-02 5.357637e-02 -1.277108e-02 -7.211272e-03
                7.223425e-01 -6.630816e-01 5.402641e-02 4.177800e-02 -1.280878e-02 -7.146333e-03 5.042212e-02 5.365511e-02
                5.048986e-02 5.355685e-02 -1.282671e-02 -7.168470e-03 5.431412e-02 4.224141e-02 7.224758e-01 -6.628874e-01
                -1.278901e-02 -7.233381e-03 5.040636e-02 5.363180e-02 7.224743e-01 -6.628890e-01 5.416880e-02 4.238460e-02
6.025641e-01    7.037783e-02 3.893478e-02 5.790868e-01 -7.881753e-01 7.444953e-02 5.302381e-02 -1.703357e-02 -4.273365e-03
                5.790899e-01 -7.881736e-01 7.074052e-02 3.842604e-02 -1.706326e-02 -4.158309e-03 7.433759e-02 5.317220e-02
                7.441989e-02 5.300490e-02 -1.709097e-02 -4.181954e-03 7.112949e-02 3.891950e-02 5.793110e-01 -7.879562e-01
                -1.706130e-02 -4.296966e-03 7.431306e-02 5.314618e-02 5.793089e-01 -7.879577e-01 7.095153e-02 3.918485e-02
7.282051e-01    8.438818e-02 2.960091e-02 4.152480e-01 -8.826596e-01 9.860323e-02 4.455196e-02 -1.985667e-02 3.072146e-04
                4.152520e-01 -8.826585e-01 8.476633e-02 2.876339e-02 -1.985312e-02 4.789703e-04 9.848564e-02 4.479258e-02
                9.856338e-02 4.453708e-02 -1.989185e-02 4.568052e-04 8.522968e-02 2.926074e-02 4.155786e-01 -8.824481e-01
                -1.989542e-02 2.851155e-04 9.845102e-02 4.476627e-02 4.155759e-01 -8.824493e-01 8.505603e-02 2.968257e-02
8.538462e-01    9.361067e-02 1.562014e-02 2.372515e-01 -9.435854e-01 1.206502e-01 2.840310e-02 -2.073943e-02 5.689396e-03
                2.372560e-01 -9.435852e-01 9.390044e-02 1.438064e-02 -2.067184e-02 5.912927e-03 1.205560e-01 2.875305e-02
                1.206008e-01 2.839587e-02 -2.072208e-02 5.895724e-03 9.440207e-02 1.487697e-02 2.376948e-01 -9.434209e-01
                -2.078967e-02 5.672287e-03 1.205106e-01 2.872932e-02 2.376916e-01 -9.434217e-01 9.428536e-02 1.547718e-02
9.794872e-01    9.669556e-02 -7.598912e-04 5.175638e-02 -9.692691e-01 1.384772e-01 5.417511e-03 -1.963811e-02 1.094005e-02
                5.176123e-02 -9.692699e-01 9.675625e-02 -2.446612e-03 -1.947518e-02 1.119612e-02 1.384438e-01 5.884594e-03
                1.384200e-01 5.421430e-03 -1.953642e-02 1.118769e-02 9.726196e-02 -1.931976e-03 5.230330e-02 -9.691943e-01
                -1.969933e-02 1.093174e-02 1.383876e-01 5.866674e-03 5.229995e-02 -9.691947e-01 9.726558e-02 -1.149158e-03
1.105128e+00    9.327142e-02 -1.699665e-02 -1.345328e-01 -9.592243e-01 1.502907e-01 -2.306359e-02 -1.693910e-02 1.525737e-02
                -1.345280e-01 -9.592261e-01 9.293308e-02 -1.913393e-02 -1.665527e-02 1.551177e-02 1.503607e-01 -2.248396e-02
                1.502286e-01 -2.304544e-02 -1.672589e-02 1.551596e-02 9.342227e-02 -1.855950e-02 -1.339079e-01 -9.592784e-01
                -1.700967e-02 1.526170e-02 1.502946e-01 -2.249272e-02 -1.339113e-01 -9.592783e-01 9.361423e-02 -1.761058e-02
1.230769e+00    8.395561e-02 -3.064449e-02 -3.150088e-01 -9.141092e-01 1.547026e-01 -5.529061e-02 -1.333582e-02 1.815046e-02
                -3.150043e-01 -9.141119e-01 8.303141e-02 -3.318167e-02 -1.291777e-02 1.835591e-02 1.549196e-01 -5.461741e-02
                1.546395e-01 -5.525588e-02 -1.299495e-02 1.837630e-02 8.350730e-02 -3.249071e-02 -3.143453e-01 -9.143204e-01
                -1.341288e-02 1.817100e-02 1.548456e-01 -5.461379e-02 -3.143488e-01 -9.143200e-01 8.395366e-02 -3.141391e-02
1.356410e+00    7.022409e-02 -3.970934e-02 -4.832957e-01 -8.356996e-01 1.508099e-01 -8.919866e-02 -9.640427e-03 1.954043e-02
                -4.832916e-01 -8.357031e-01 6.852729e-02 -4.253325e-02 -9.092990e-03 1.964116e-02 1.512134e-01 -8.846584e-02
                1.507505e-01 -8.914616e-02 -9.172710e-03 1.968066e-02 6.902394e-02 -4.166485e-02 -4.826408e-01 -8.360802e-01
                -9.719984e-03 1.958006e-02 1.511344e-01 -8.844709e-02 -4.826443e-01 -8.360796e-01 6.978257e-02 -4.051913e-02
1.482051e+00    5.416745e-02 -4.292356e-02 -6.334044e-01 -7.268724e-01 1.382721e-01 -1.225187e-01 -6.571341e-03 1.976365e-02
                -6.334010e-01 -7.268765e-01 5.153179e-02 -4.585523e-02 -5.921542e-03 1.970249e-02 1.388927e-01 -1.217739e-01
                1.382217e-01 -1.224486e-01 -5.998800e-03 1.976293e-02 5.211648e-02 -4.475816e-02 -6.328056e-01 -7.274176e-01
                -6.648384e-03 1.982418e-02 1.388126e-01 -1.217381e-01 -6.328092e-01 -7.274170e-01 5.323149e-02 -4.362065e-02
1.607692e+00    3.816959e-02 -3.990921e-02 -7.599221e-01 -5.915720e-01 1.173755e-01 -1.529228e-01 -4.561819e-03 1.947550e-02
                -7.599193e-01 -5.915764e-01 3.447173e-02 -4.270740e-02 -3.860156e-03 1.920277e-02 1.182301e-01 -1.522243e-01
                1.173396e-01 -1.528370e-01 -3.929267e-03 1.928455e-02 3.524131e-02 -4.135498e-02 -7.594194e-01 -5.922626e-01
                -4.630680e-03 1.955731e-02 1.181535e-01 -1.521707e-01 -7.594232e-01 -5.922620e-01 3.673869e-02 -4.031728e-02
1.733333e+00    2.455405e-02 -3.121164e-02 -8.582254e-01 -4.347300e-01 8.905808e-02 -1.782065e-01 -3.633736e-03 1.947267e-02
                -8.582231e-01 -4.347347e-01 1.973543e-02 -3.358395e-02 -2.951792e-03 1.895571e-02 9.014651e-02 -1.776188e-01
                8.904143e-02 -1.781086e-01 -3.006847e-03 1.905762e-02 2.080642e-02 -3.198742e-02 -8.578471e-01 -4.355386e-01
                -3.688544e-03 1.957451e-02 9.007798e-02 -1.775479e-01 -8.578516e-01 -4.355379e-01 2.269070e-02 -3.115123e-02
1.858974e+00    1.524628e-02 -1.820121e-02 -9.246954e-01 -2.621200e-01 5.486755e-02 -1.964920e-01 -3.369680e-03 2.047195e-02
                -9.246935e-01 -2.621247e-01 9.331930e-03 -1.982291e-02 -2.793802e-03 1.970375e-02 5.617121e-02 -1.960798e-01
                5.487408e-02 -1.963871e-01 -2.829201e-03 1.982286e-02 1.082478e-02 -1.804044e-02 -9.244581e-01 -2.630179e-01
                -3.404881e-03 2.059090e-02 5.611531e-02 -1.959938e-01 -9.244634e-01 -2.630169e-01 1.307678e-02 -1.751287e-02
1.984615e+00    1.149875e-02 -2.858769e-03 -9.569020e-01 -8.014247e-02 1.684117e-02 -2.064164e-01 -2.995615e-03 2.289721e-02
                -9.569003e-01 -8.014738e-02 4.610156e-03 -3.398208e-03 -2.617116e-03 2.190240e-02 1.832348e-02 -2.062397e-01
                1.687315e-02 -2.063109e-01 -2.628092e-03 2.203423e-02 6.629807e-03 -1.537109e-03 -9.568137e-01 -8.110603e-02
                -3.006494e-03 2.302882e-02 1.828395e-02 -2.061418e-01 -9.568201e-01 -8.110447e-02 9.205170e-03 -1.425880e-03
2.110256e+00    1.371642e-02 1.252348e-02 -9.537272e-01 1.044437e-01 -2.268560e-02 -2.072671e-01 -1.558925e-03 2.672802e-02
                -9.537256e-01 1.044385e-01 6.076255e-03 1.337472e-02 -1.461989e-03 2.556486e-02 -2.107688e-02 -2.073754e-01
                -2.262785e-02 -2.071679e-01 -1.445043e-03 2.570373e-02 8.692051e-03 1.516416e-02 -9.537944e-01 1.034311e-01
                -1.542023e-03 2.686663e-02 -2.109744e-02 -2.072700e-01 -9.538020e-01 1.034338e-01 1.152040e-02 1.475565e-02
2.235897e+00    2.140591e-02 2.568228e-02 -9.154091e-01 2.848193e-01 -6.130826e-02 -1.990312e-01 1.839024e-03 3.144961e-02
                -9.154075e-01 2.848135e-01 1.333298e-02 2.817740e-02 1.589963e-03 3.020725e-02 -5.963757e-02 -1.994608e-01
                -6.122659e-02 -1.989455e-01 1.636783e-03 3.034667e-02 1.656179e-02 2.971640e-02 -9.156433e-01 2.837696e-01
                1.885637e-03 3.158884e-02 -5.963797e-02 -1.993527e-01 -9.156519e-01 2.837741e-01 1.954640e-02 2.869431e-02
2.361538e+00    3.325373e-02 3.471663e-02 -8.435016e-01 4.543972e-01 -9.677609e-02 -1.823543e-01 7.811201e-03 3.611803e-02
                -8.435002e-01 4.543907e-01 2.514754e-02 3.902298e-02 7.182663e-03 3.490887e-02 -9.511612e-02 -1.831253e-01
                -9.667441e-02 -1.822884e-01 7.259668e-03 3.504211e-02 2.894353e-02 4.012520e-02 -8.439231e-01 4.533241e-01
                7.887849e-03 3.625120e-02 -9.509665e-02 -1.830193e-01 -8.439325e-01 4.533310e-01 3.196153e-02 3.841090e-02
2.487179e+00    4.732090e-02 3.836788e-02 -7.407603e-01 6.070804e-01 -1.271670e-01 -1.584236e-01 1.650788e-02 3.952477e-02
                -7.407593e-01 6.070728e-01 3.963648e-02 4.454102e-02 1.550536e-02 3.847304e-02 -1.255949e-01 -1.595394e-01
                -1.270509e-01 -1.583825e-01 1.561131e-02 3.859350e-02 4.388976e-02 4.503654e-02 -7.413978e-01 6.060075e-01
                1.661337e-02 3.964538e-02 -1.255572e-01 -1.594399e-01 -7.414073e-01 6.060173e-01 4.679329e-02 4.257304e-02
2.612821e+00    6.132607e-02 3.620880e-02 -6.109785e-01 7.374624e-01 -1.509911e-01 -1.288148e-01 2.753162e-02 4.042290e-02
                -6.109782e-01 7.374535e-01 5.454047e-02 4.417437e-02 2.620322e-02 3.965060e-02 -1.495854e-01 -1.302610e-01
                -1.508676e-01 -1.288016e-01 2.633550e-02 3.975220e-02 5.908515e-02 4.393296e-02 -6.118629e-01 7.364306e-01
                2.766343e-02 4.052494e-02 -1.495321e-01 -1.301715e-01 -6.118718e-01 7.364438e-01 6.170381e-02 4.069200e-02
2.738462e+00    7.297812e-02 2.871727e-02 -4.588033e-01 8.409641e-01 -1.672251e-01 -9.534128e-02 3.995801e-02 3.776654e-02
                -4.588044e-01 8.409539e-01 6.755108e-02 3.826308e-02 3.839298e-02 3.737856e-02 -1.660624e-01 -9.708566e-02
                -1.671019e-01 -9.535689e-02 3.854787e-02 3.745592e-02 7.218163e-02 3.721313e-02 -4.599583e-01 8.400350e-01
                4.011254e-02 3.784464e-02 -1.659968e-01 -9.700847e-02 -4.599655e-01 8.400519e-01 7.432683e-02 3.320281e-02
2.864103e+00    8.031470e-02 1.722549e-02 -2.895603e-01 9.139149e-01 -1.752999e-01 -5.993621e-02 5.245371e-02 3.091901e-02
                -2.895633e-01 9.139034e-01 7.664660e-02 2.800575e-02 5.077600e-02 3.098909e-02 -1.744511e-01 -6.192780e-02
                -1.751842e-01 -5.997948e-02 5.094892e-02 3.103763e-02 8.114015e-02 2.614626e-02 -2.909902e-01 9.131689e-01
                5.262651e-02 3.096859e-02 -1.743767e-01 -6.186413e-02 -2.909945e-01 9.131893e-01 8.261198e-02 2.141868e-02
2.989744e+00    8.200416e-02 3.750683e-03 -1.091050e-01 9.536003e-01 -1.750743e-01 -2.457635e-02 6.346854e-02 1.979586e-02
                -1.091106e-01 9.535880e-01 8.039476e-02 1.530314e-02 6.182552e-02 2.035492e-02 -1.746007e-01 -2.674507e-02
                -1.749729e-01 -2.464402e-02 6.201116e-02 2.037089e-02 8.453648e-02 1.270738e-02 -1.107850e-01 9.531282e-01
                6.365444e-02 1.981309e-02 -1.745208e-01 -2.669498e-02 -1.107853e-01 9.531517e-01 8.513358e-02 7.365616e-03
3.115385e+00    7.757328e-02 -9.274860e-03 7.629498e-02 9.583044e-01 -1.668252e-01 8.766254e-03 7.147051e-02 4.921423e-03
                7.628619e-02 9.582918e-01 7.818503e-02 2.501375e-03 7.001779e-02 5.949798e-03 -1.667724e-01 6.509168e-03
                -1.667436e-01 8.679187e-03 7.021020e-02 5.930292e-03 8.179396e-02 -6.882967e-04 7.442460e-02 9.581942e-01
                7.166366e-02 4.903256e-03 -1.666895e-01 6.546447e-03 7.442961e-02 9.582201e-01 8.132671e-02 -6.485175e-03
3.241026e+00    6.752985e-02 -1.934695e-02 2.600628e-01 9.273722e-01 -1.512668e-01 3.817305e-02 7.518991e-02 -1.261152e-02
                2.600504e-01 9.273601e-01 7.036009e-02 -7.938998e-03 7.407328e-02 -1.118647e-02 -1.516577e-01 3.593242e-02
                -1.512086e-01 3.807281e-02 7.426591e-02 -1.124348e-02 7.331257e-02 -1.152494e-02 2.580957e-01 9.276940e-01
                7.538382e-02 -1.266727e-02 -1.515737e-01 3.595817e-02 2.581070e-01 9.277211e-01 7.161944e-02 -1.756021e-02
3.366667e+00    5.335610e-02 -2.427023e-02 4.354294e-01 8.613054e-01 -1.295900e-01 6.186060e-02 7.383535e-02 -3.127974e-02
                4.354131e-01 8.612948e-01 5.822235e-02 -1.381363e-02 7.317163e-02 -2.957946e-02 -1.304173e-01 5.975149e-02
                -1.295567e-01 6.175401e-02 7.335732e-02 -2.967496e-02 6.047060e-02 -1.756480e-02 4.334848e-01 8.620972e-01
                7.402284e-02 -3.137426e-02 -1.303331e-01 5.976710e-02 4.335032e-01 8.621238e-01 5.743695e-02 -2.356752e-02
3.492308e+00    3.735744e-02 -2.253146e-02 5.956013e-01 7.618829e-01 -1.034894e-01 7.831621e-02 6.724201e-02 -4.935342e-02
                5.955813e-01 7.618751e-01 4.390009e-02 -1.354151e-02 6.710135e-02 -4.753652e-02 -1.047104e-01 7.645437e-02
                -1.034806e-01 7.820995e-02 6.727240e-02 -4.767021e-02 4.548299e-02 -1.722207e-02 5.938100e-01 7.631413e-01
                6.741531e-02 -4.948659e-02 -1.046260e-01 7.646086e-02 5.938358e-01 7.631657e-01 4.106052e-02 -2.287724e-02
3.617949e+00    2.236467e-02 -1.361013e-02 7.340107e-01 6.322748e-01 -7.513623e-02 8.648411e-02 5.591332e-02 -6.517540e-02
                7.339873e-01 6.322710e-01 3.007032e-02 -6.475167e-03 5.630614e-02 -6.341890e-02 -7.667030e-02 8.497319e-02
                -7.514923e-02 8.638404e-02 5.645452e-02 -6.358893e-02 3.111348e-02 -9.877558e-03 7.324969e-01 6.339530e-01
                5.606426e-02 -6.534552e-02 -7.658521e-02 8.497083e-02 7.325299e-01 6.339730e-01 2.533774e-02 -1.484398e-02
3.743590e+00    1.131068e-02 1.836664e-03 8.446560e-01 4.770949e-01 -4.705498e-02 8.596790e-02 4.093022e-02 -7.744353e-02
                8.446300e-01 4.770962e-01 1.955716e-02 6.906769e-03 4.180214e-02 -7.591881e-02 -4.878711e-02 8.488509e-02
                -4.708589e-02 8.587842e-02 4.191984e-02 -7.612151e-02 2.025992e-02 3.928573e-03 8.435210e-01 4.791092e-01
                4.105061e-02 -7.764706e-02 -4.870075e-02 8.487319e-02 8.435605e-01 4.791228e-01 1.326246e-02 -7.068701e-06
3.869231e+00    6.734648e-03 2.197387e-02 9.225098e-01 3.023338e-01 -2.189305e-02 7.718959e-02 2.373071e-02 -8.542728e-02
                9.224826e-01 3.023413e-01 1.485548e-02 2.498251e-02 2.496799e-02 -8.427447e-02 -2.368333e-02 7.657253e-02
                -2.193713e-02 7.711327e-02 2.504753e-02 -8.450425e-02 1.546414e-02 2.248517e-02 9.218205e-01 3.045776e-01
                2.381286e-02 -8.565863e-02 -2.359557e-02 7.654942e-02 9.218651e-01 3.045829e-01 7.475637e-03 1.989219e-02
3.994872e+00    1.030047e-02 4.400708e-02 9.639309e-01 1.151285e-01 -2.109226e-03 6.144134e-02 5.803327e-03 -8.905283e-02
                9.639040e-01 1.151428e-01 1.766183e-02 4.518068e-02 7.249183e-03 -8.835888e-02 -3.807795e-03 6.127933e-02
                -2.161721e-03 6.137884e-02 7.284189e-03 -8.860826e-02 1.843157e-02 4.311561e-02 9.637164e-01 1.174886e-01
                5.840643e-03 -8.930452e-02 -3.719490e-03 6.124261e-02 9.637642e-01 1.174841e-01 9.773445e-03 4.211426e-02
4.120513e+00    2.243534e-02 6.460746e-02 9.669932e-01 -7.663455e-02 1.035209e-02 4.079073e-02 -1.162531e-02 -8.882174e-02
                9.669685e-01 -7.661327e-02 2.851474e-02 6.437531e-02 -1.014563e-02 -8.860702e-02 8.887172e-03 4.102254e-02
                1.029516e-02 4.074105e-02 -1.015991e-02 -8.886698e-02 2.966602e-02 6.258978e-02 9.672505e-01 -7.426250e-02
                -1.163775e-02 -8.908466e-02 8.973755e-03 4.096958e-02 9.672991e-01 -7.427797e-02 2.072974e-02 6.333652e-02
4.246154e+00    4.218306e-02 8.047258e-02 9.316519e-01 -2.648312e-01 1.431986e-02 1.784767e-02 -2.781598e-02 -8.558023e-02
                9.316313e-01 -2.648033e-01 4.663670e-02 7.941711e-02 -2.646651e-02 -8.579737e-02 1.320523e-02 1.836641e-02
                1.426116e-02 1.780875e-02 -2.653277e-02 -8.605778e-02 4.831465e-02 7.767408e-02 9.323568e-01 -2.625338e-01
                -2.788104e-02 -8.584413e-02 1.328628e-02 1.829505e-02 9.324036e-01 -2.625606e-01 3.953054e-02 8.021174e-02
4.371795e+00    6.731975e-02 8.890722e-02 8.597054e-01 -4.416339e-01 9.527774e-03 -4.551424e-03 -4.258681e-02 -8.020864e-02
                8.596906e-01 -4.416002e-01 7.002705e-02 8.769146e-02 -4.149443e-02 -8.075389e-02 8.840772e-03 -3.887441e-03
                9.468401e-03 -4.581982e-03 -4.161316e-02 -8.100411e-02 7.227224e-02 8.570520e-02 8.608257e-01 -4.394786e-01
                -4.270509e-02 -8.046275e-02 8.911119e-03 -3.978197e-03 8.608680e-01 -4.395166e-01 6.407185e-02 8.995393e-02
4.497436e+00    9.471276e-02 8.829750e-02 7.545730e-01 -5.999688e-01 -3.396889e-03 -2.366376e-02 -5.621066e-02 -7.332740e-02
                7.545656e-01 -5.999308e-01 9.579042e-02 8.758093e-02 -5.544656e-02 -7.406204e-02 -3.626998e-03 -2.301678e-02
                -3.457298e-03 -2.368795e-02 -5.561602e-02 -7.429144e-02 9.852704e-02 8.506169e-02 7.560782e-01 -5.980100e-01
                -5.638050e-02 -7.356094e-02 -3.573451e-03 -2.312614e-02 7.561132e-01 -5.980582e-01 9.130447e-02 9.082370e-02
4.623077e+00    1.208426e-01 7.838158e-02 6.209598e-01 -7.338273e-01 -2.305361e-02 -3.709961e-02 -6.917876e-02 -6.510594e-02
                6.209609e-01 -7.337867e-01 1.206268e-01 7.873772e-02 -6.875105e-02 -6.588282e-02 -2.284926e-02 -3.663725e-02
                -2.311646e-02 -3.711837e-02 -6.896743e-02 -6.608122e-02 1.236699e-01 7.543645e-02 6.228250e-01 -7.321154e-01
                -6.939646e-02 -6.530859e-02 -2.281881e-02 -3.676228e-02 6.228504e-01 -7.321722e-01 1.177473e-01 8.241368e-02
4.748718e+00    1.423767e-01 6.027534e-02 4.645005e-01 -8.384189e-01 -4.744055e-02 -4.299456e-02 -8.190558e-02 -5.522262e-02
                4.645109e-01 -8.383777e-01 1.413774e-01 6.212265e-02 -8.176358e-02 -5.591251e-02 -4.687541e-02 -4.287549e-02
                -4.750764e-02 -4.300739e-02 -8.202120e-02 -5.607050e-02 1.444569e-01 5.786821e-02 4.667033e-01 -8.370095e-01
                -8.216552e-02 -5.538479e-02 -4.687378e-02 -4.301094e-02 4.667171e-01 -8.370730e-01 1.400582e-01 6.568993e-02
4.874359e+00    1.566881e-01 3.626763e-02 2.914530e-01 -9.102048e-01 -7.412767e-02 -4.010889e-02 -9.445605e-02 -4.297837e-02
                2.914730e-01 -9.101653e-01 1.555239e-01 3.982232e-02 -9.450474e-02 -4.349141e-02 -7.332346e-02 -4.046964e-02
                -7.420049e-02 -4.011385e-02 -9.479622e-02 -4.360055e-02 1.583191e-01 3.454538e-02 2.939658e-01 -9.091646e-01
                -9.475092e-02 -4.309143e-02 -7.335493e-02 -4.060821e-02 2.939663e-01 -9.092322e-01 1.555546e-01 4.280230e-02
5.000000e+00    1.622378e-01 9.438386e-03 1.084726e-01 -9.468791e-01 -1.004103e-01 -2.789033e-02 -1.063620e-01 -2.753113e-02
                1.085018e-01 -9.468435e-01 1.615601e-01 1.469345e-02 -1.064833e-01 -2.783004e-02 -9.953151e-02 -2.883285e-02
                -1.004893e-01 -2.788417e-02 -1.067996e-01 -2.788307e-02 1.637393e-01 8.435273e-03 1.112516e-01 -9.462847e-01
