! Created Thu Jun 26 07:35:08 2025
# hz S ma R 50
! 2 Port Network Data from SP1.SP block
! freq  magS11  angS11  magS21  angS21  magS12  angS12  magS22  angS22  
!     
         100000000       0.292709476        -130.315743         0.95619769        -32.7821832         0.95619769        -32.7821832        0.292712785         -115.24965
         124623116       0.351447832        -139.766773         0.93620585        -40.3197936         0.93620585        -40.3197936        0.351449241        -120.873331
         149246231       0.403349237          -148.9812        0.915045462        -47.5807847        0.915045462        -47.5807847        0.403347986        -126.180415
         173869347       0.448418356        -157.969109        0.893822844        -54.5659592        0.893822844        -54.5659592        0.448413853        -131.162534
         198492462       0.486936237        -166.755229         0.87343523        -61.2900207         0.87343523        -61.2900207        0.486927981        -135.824447
         223115578       0.519346326        -175.375064         0.85455954        -67.7775285         0.85455954        -67.7775285        0.519333932        -140.179824
         247738693       0.546163892         176.128479        0.837671633        -74.0593314        0.837671633        -74.0593314        0.546147403        -144.247482
         272361809       0.567912803         167.707665        0.823079547        -80.1697631        0.823079547        -80.1697631        0.567893255        -148.048313
         296984925       0.585086678         159.311718        0.810959229        -86.1446114        0.810959229        -86.1446114        0.585065894        -151.602945
         321608040       0.598128872          150.88792        0.801386285        -92.0197426        0.801386285        -92.0197426        0.598107857        -154.930205
         346231156       0.607425821         142.382217        0.794360964        -97.8302081        0.794360964        -97.8302081         0.60740398        -158.046089
         370854271       0.613309445         133.739489        0.789825846        -103.609669        0.789825846        -103.609669        0.613285368        -160.962835
         395477387       0.616065672         124.903678        0.787676838        -109.389995        0.787676838        -109.389995        0.616037871         -163.68814
         420100503       0.615947346         115.817902        0.787768609        -115.200917        0.787768609        -115.200917        0.615914475        -166.224576
         444723618       0.613190588         106.424736        0.789915774        -121.069662        0.789915774        -121.069662         0.61315146        -168.569144
         469346734         0.6080341         96.6668342        0.793891307        -127.020484        0.793891307        -127.020484        0.607987685        -170.712975
         493969849       0.600740846         86.4880933        0.799423818        -133.074089        0.799423818        -133.074089        0.600686303        -172.641337
         518592965       0.591620948          75.835626          0.8061956        -139.246916          0.8061956        -139.246916        0.591557693        -174.334185
         543216080       0.581053482         64.6628136        0.813843578        -145.550341        0.813843578        -145.550341        0.580981296         -175.76761
         567839196        0.56950318          52.933699        0.821965396        -151.989868        0.821965396        -151.989868        0.569422343        -176.916615
         592462312       0.557526174         40.6288101        0.830132571         -158.56443        0.830132571         -158.56443        0.557437614        -177.759561
         617085427       0.545757737         27.7521022        0.837911698        -165.265994        0.837911698        -165.265994        0.545663173        -178.284313
         641708543       0.534875838         14.3379815        0.844893028        -172.079615        0.844893028        -172.079615         0.53477787        -178.495401
         666331658       0.525538781        0.456423729        0.850723565         -178.98412        0.850723565         -178.98412        0.525440886        -178.420509
         690954774       0.518303764        -13.7865065        0.855139719         174.046551        0.855139719         174.046551        0.518210151        -178.113691
         715577889       0.513543504        -28.2551112        0.857993379         167.041386        0.857993379         167.041386         0.51345882        -177.652822
         740201005       0.511384706         -42.797923        0.859265834         160.029958        0.859265834         160.029958         0.51131363        -177.130408
         764824121       0.511688968         -57.266357        0.859066294          153.03998        0.859066294          153.03998        0.511635785        -176.639775
         789447236       0.514082946        -71.5331598        0.857615247         146.095116        0.857615247         146.095116        0.514051197        -176.260979
         814070352       0.518026962        -85.5057159        0.855216222         139.213305        0.855216222         139.213305        0.518019236        -176.050827
         838693467       0.522899823        -99.1317249         0.85222153         132.405766         0.85222153         132.405766        0.522917705          -176.0392
         863316583       0.528077504        -112.397856        0.848997754         125.676692        0.848997754         125.676692        0.528121642        -176.231017
         887939698       0.532991775        -125.323906        0.845895412         119.023551        0.845895412         119.023551        0.533062006        -176.611503
         912562814       0.537165237        -137.955241        0.843225186         112.437824        0.843225186         112.437824        0.537260734        -177.152276
         937185930       0.540226684        -150.355504         0.84124112         105.906038         0.84124112         105.906038        0.540346074        -177.816593
         961809045       0.541913862        -162.600548        0.840129835         99.4109353        0.840129835         99.4109353        0.542055311        -178.563077
         986432161       0.542070663        -174.773749        0.840004187         92.9327092        0.840004187         92.9327092        0.542231923        -179.347932
    1.01105528e+09       0.540644163         173.037597        0.840899825         86.4502505        0.840899825         86.4502505        0.540822583          179.87394
    1.03567839e+09       0.537684788         160.745339        0.842773581         79.9424011        0.842773581         79.9424011        0.537877289         179.148399
    1.06030151e+09       0.533350719         148.263606        0.845503359         73.3892245        0.845503359         73.3892245        0.533553768         178.521465
    1.08492462e+09       0.527915489         135.512702        0.848890019         66.7733038        0.848890019         66.7733038        0.528125077          178.03804
    1.10954774e+09       0.521775266         122.424364        0.852662531         60.0810587        0.852662531         60.0810587        0.521986922         177.739284
    1.13417085e+09       0.515449655         108.948858        0.856488206         53.3040289        0.856488206         53.3040289        0.515658533         177.658109
    1.15879397e+09       0.509567496         95.0638153        0.859989893         46.4400261        0.859989893         46.4400261        0.509768574         177.812646
    1.18341709e+09       0.504828525         80.7837754        0.862771341         39.4939972        0.862771341         39.4939972        0.505016947         178.198435
     1.2080402e+09       0.501935235         66.1679603        0.864450415         32.4784104        0.864450415         32.4784104        0.502106781         178.781407
    1.23266332e+09       0.501498571         51.3226054        0.864697487          25.412981        0.864697487          25.412981        0.501650209         179.494969
    1.25728643e+09        0.50393493         36.3943588        0.863273919         18.3236214        0.863273919         18.3236214        0.504065298        -179.755544
    1.28190955e+09       0.509383468         21.5538587        0.860063856         11.2406272        0.860063856         11.2406272        0.509493156        -179.080119
    1.30653266e+09       0.517672544         6.97291538        0.855092762         4.19627393        0.855092762         4.19627393        0.517764049        -178.586067
    1.33115578e+09       0.528348251        -7.19795655          0.8485285          -2.777863          0.8485285          -2.777863        0.528425621        -178.360896
    1.35577889e+09       0.540754181        -20.8451829         0.84066477        -9.65347862         0.84066477        -9.65347862        0.540822469        -178.461765
    1.38040201e+09       0.554134405        -33.8980914        0.831890851        -16.4076492        0.831890851        -16.4076492         0.55419908         -178.91369
    1.40502513e+09       0.567729611        -46.3264664        0.822654325        -23.0242522        0.822654325        -23.0242522        0.567796061        -179.714802
    1.42964824e+09       0.580846722        -58.1331818        0.813423921        -29.4946278        0.813423921        -29.4946278        0.580919909         179.154978
    1.45427136e+09       0.592896063        -69.3453515        0.804658149        -35.8175617        0.804658149        -35.8175617        0.592980336         177.725122
    1.47889447e+09       0.603400262        -80.0062219        0.796782749        -41.9987652        0.796782749        -41.9987652        0.603499283         176.027413
    1.50351759e+09       0.611983485        -90.1687654        0.790177498        -48.0500592        0.790177498        -48.0500592        0.612100245          174.09117
     1.5281407e+09       0.618349736        -99.8911014        0.785171003        -53.9884513        0.785171003        -53.9884513        0.618486607         171.940499
    1.55276382e+09       0.622256899        -109.233479         0.78204119        -59.8352456         0.78204119        -59.8352456        0.622415712         169.593052
    1.57738693e+09       0.623490765        -118.256448        0.781018946        -65.6152731        0.781018946        -65.6152731        0.623672882         167.059737
    1.60201005e+09       0.621841238         -127.01987        0.782292602        -71.3562767        0.782292602        -71.3562767         0.62204762         164.344956
    1.62663317e+09       0.617081596        -135.582477        0.786011265        -77.0884469        0.786011265        -77.0884469        0.617312844         161.447099
    1.65125628e+09       0.608951043        -144.001778        0.792285358        -82.8440733        0.792285358        -82.8440733        0.609207435         158.359142
     1.6758794e+09       0.597140736        -152.334106        0.801182926        -88.6572496        0.801182926        -88.6572496        0.597422231         155.069299
    1.70050251e+09       0.581283841        -160.634682        0.812720359        -94.5635492        0.812720359        -94.5635492        0.581590067          151.56174
    1.72512563e+09       0.560951021         -168.95754        0.826846334        -100.599558        0.826846334        -100.599558        0.561281238         147.817462
    1.74974874e+09        0.53565394        -177.355163        0.843418082        -106.802123        0.843418082        -106.802123        0.536006974         143.815447
    1.77437186e+09       0.504860853         174.122333        0.862169984        -113.207153        0.862169984        -113.207153        0.505235014         139.534288
    1.79899497e+09       0.468029821         165.428607        0.882676393        -119.847771        0.882676393        -119.847771        0.468422793         134.954518
    1.82361809e+09       0.424665757         156.523184        0.904313938         -126.75168        0.904313938         -126.75168        0.425074483         130.061912
    1.84824121e+09       0.374406016         147.374066        0.926233625         -133.93768        0.926233625         -133.93768        0.374826594         124.852078
    1.87286432e+09       0.317133601         137.960138        0.947358803        -141.411513        0.947358803        -141.411513        0.317561242         119.336936
    1.89748744e+09       0.253105744           128.2709        0.966428739        -149.161624        0.966428739        -149.161624        0.253534858          113.55506
    1.92211055e+09       0.183069587         118.294428        0.982104049        -157.155846        0.982104049        -157.155846        0.183494188         107.595971
    1.94673367e+09        0.10832295         107.937369        0.993134464        -165.340382        0.993134464        -165.340382        0.108738213         101.711685
    1.97135678e+09      0.0306927495         95.7003002        0.998561793        -173.642293        0.998561793        -173.642293       0.0311123177         98.0956037
     1.9959799e+09      0.0477852993        -89.6292545        0.997903104         178.024086        0.997903104         178.024086       0.0474526802        -95.0344731
    2.02060302e+09       0.124682367        -100.907171        0.991251118         169.747766        0.991251118         169.747766        0.124368694        -99.8508003
    2.04522613e+09        0.19802909        -111.164623        0.979253395         161.610908        0.979253395         161.610908         0.19775019        -105.762656
    2.06984925e+09       0.266166404        -121.088357        0.962978931         153.680302        0.962978931         153.680302         0.26592698        -111.654257
    2.09447236e+09       0.327979293        -130.738967        0.943722153         146.002284        0.943722153         146.002284        0.327781186        -117.334226
    2.11909548e+09       0.382891743        -140.128839        0.922807253          138.60154        0.922807253          138.60154        0.382734999        -122.730048
    2.14371859e+09       0.430782917        -149.273534        0.901439436         131.483062        0.901439436         131.483062        0.430666278           -127.812
    2.16834171e+09       0.471863496         -158.19941        0.880620449         124.635914        0.880620449         124.635914        0.471784756        -132.573594
    2.19296482e+09       0.506550452        -166.942907        0.861121468         118.037554        0.861121468         118.037554        0.506506741        -137.022377
    2.21758794e+09       0.535362872        -175.548047        0.843494967         111.657805        0.843494967         111.657805        0.535350857        -141.173987
    2.24221106e+09        0.55884666         175.935993         0.82810657         105.462086         0.82810657         105.462086        0.558862685         -145.04795
    2.26683417e+09       0.577526658         167.456748        0.815172717         99.4137848        0.815172717         99.4137848         0.57756682        -148.664697
    2.29145729e+09       0.591880656         158.959685         0.80479564         93.4758961         0.80479564         93.4758961        0.591940832        -152.043466
     2.3160804e+09       0.602329233         150.388908        0.796991712         87.6120922        0.796991712         87.6120922        0.602405084        -155.200844
    2.34070352e+09       0.609236396         141.687513         0.79171204         81.7874128         0.79171204         81.7874128        0.609323342        -158.149725
    2.36532663e+09       0.612917441         132.797773        0.788855757         75.9687371        0.788855757         75.9687371        0.613010628        -160.898536
    2.38994975e+09       0.613651849         123.661308        0.788277139         70.1251675        0.788277139         70.1251675        0.613746126        -163.450639
    2.41457286e+09       0.611699964         114.219439        0.789787976         64.2284251        0.789787976         64.2284251        0.611789868        -165.803875
    2.43919598e+09       0.607322714         104.413896        0.793156784         58.2533278        0.793156784         58.2533278        0.607402486        -167.950314
     2.4638191e+09       0.600803614         94.1881231        0.798106642         52.1783892        0.798106642         52.1783892        0.600867272        -169.876345
    2.48844221e+09       0.592471737         83.4894323        0.804313657         45.9865464        0.804313657         45.9865464        0.592513202        -171.563356
    2.51306533e+09       0.582723105         72.2722856        0.811408324         39.6659802        0.811408324         39.6659802        0.582736438        -172.989363
    2.53768844e+09       0.572036305         60.5029334          0.8189821         33.2109457          0.8189821         33.2109457         0.57201606        -174.131964
    2.56231156e+09       0.560976305         48.1654255        0.826601198         26.6224784        0.826601198         26.6224784        0.560918041         -174.97293
    2.58693467e+09       0.550179492         35.2685566        0.833828593         19.9088006        0.833828593         19.9088006        0.550080433        -175.504341
    2.61155779e+09       0.540314238         21.8525441        0.840253482          13.085243        0.840253482          13.085243        0.540174047        -175.735461
     2.6361809e+09       0.532016405         7.99333252        0.845525205          6.1735285        0.845525205          6.1735285        0.531837917        -175.698537
    2.66080402e+09       0.525808072        -6.19811865        0.849386419       -0.799641542        0.849386419       -0.799641542        0.525597727        -175.451019
    2.68542714e+09       0.522017813        -20.5835982        0.851699216        -7.80462298        0.851699216        -7.80462298        0.521785447        -175.071962
    2.71005025e+09       0.520726067        -35.0123447        0.852458516        -14.8112665        0.852458516        -14.8112665        0.520483732        -174.652248
    2.73467337e+09       0.521754246         -49.339627        0.851789584        -21.7914341        0.851789584        -21.7914341        0.521513903        -174.281018
    2.75929648e+09        0.52470042        -63.4437249        0.849930268        -28.7212846        0.849930268        -28.7212846        0.524469622        -174.032625
     2.7839196e+09       0.529008125        -77.2390324        0.847200597        -35.5832393        0.847200597        -35.5832393        0.528795273         -173.95735
    2.80854271e+09       0.534057194        -90.6814996        0.843966785        -42.3665062        0.843966785        -42.3665062        0.533873837        -174.079943
    2.83316583e+09       0.539228788        -103.761774        0.840608017        -49.0676867        0.840608017        -49.0676867        0.539078887        -174.401929
    2.85778894e+09       0.543964626        -116.503127        0.837484862        -55.6903774        0.837484862        -55.6903774        0.543847177        -174.906365
    2.88241206e+09       0.547797539        -128.953931        0.834915619        -62.2443796        0.834915619        -62.2443796        0.547709126        -175.563933
    2.90703518e+09       0.550363442        -141.180635        0.833159877        -68.7446375        0.833159877        -68.7446375        0.550299814        -176.337851
    2.93165829e+09       0.551402132        -153.262074        0.832408024        -75.2100432        0.832408024        -75.2100432        0.551358759        -177.187079
