! Generated on: 2025-06-29 14:45:02
! Project: {project_name}
! Simulation software: EMerge
# Hz S RI R 50
1.000000e+08 -1.647267e-01 -2.215008e-01 -6.876688e-01 4.437490e-01 -9.383524e-01 6.052713e-01 -1.335932e-01 -2.462925e-01
1.487179e+08 -3.206221e-01 -2.052771e-01 -5.295447e-01 5.807236e-01 -7.226234e-01 7.921726e-01 -2.368237e-01 -3.053143e-01
1.974359e+08 -4.490648e-01 -1.077316e-01 -3.593694e-01 6.611204e-01 -4.904441e-01 9.018675e-01 -3.401760e-01 -3.219202e-01
2.461538e+08 -5.193586e-01 4.281375e-02 -1.938732e-01 6.965255e-01 -2.646500e-01 9.501621e-01 -4.297204e-01 -3.066420e-01
2.948718e+08 -5.193616e-01 2.144759e-01 -3.944815e-02 6.990367e-01 -5.396984e-02 9.535644e-01 -4.996571e-01 -2.709915e-01
3.435897e+08 -4.492472e-01 3.783823e-01 1.034719e-01 6.770838e-01 1.409980e-01 9.235795e-01 -5.490734e-01 -2.243709e-01
3.923077e+08 -3.169583e-01 5.095604e-01 2.365744e-01 6.347498e-01 3.225503e-01 8.657829e-01 -5.793043e-01 -1.737261e-01
4.410256e+08 -1.368019e-01 5.863350e-01 3.611343e-01 5.725194e-01 4.924216e-01 7.808432e-01 -5.925577e-01 -1.241943e-01
4.897436e+08 6.980860e-02 5.908592e-01 4.763783e-01 4.885154e-01 6.495531e-01 6.662084e-01 -5.914929e-01 -7.979586e-02
5.384615e+08 2.733046e-01 5.121048e-01 5.784170e-01 3.801178e-01 7.886373e-01 5.183176e-01 -5.793214e-01 -4.378342e-02
5.871795e+08 4.371149e-01 3.513960e-01 6.598962e-01 2.461024e-01 8.996447e-01 3.355163e-01 -5.600434e-01 -1.851709e-02
6.358974e+08 5.236852e-01 1.284423e-01 7.109419e-01 8.908164e-02 9.691162e-01 1.213853e-01 -5.384190e-01 -4.916518e-03
6.846154e+08 5.060353e-01 -1.168235e-01 7.218364e-01 -8.274824e-02 9.838146e-01 -1.128813e-01 -5.193338e-01 -1.831910e-03
7.333333e+08 3.806167e-01 -3.315835e-01 6.867709e-01 -2.560308e-01 9.358424e-01 -3.490586e-01 -5.065782e-01 -5.944029e-03
7.820513e+08 1.730618e-01 -4.663503e-01 6.066179e-01 -4.154012e-01 8.264171e-01 -5.661942e-01 -5.016513e-01 -1.264149e-02
8.307692e+08 -6.871198e-02 -4.918761e-01 4.887471e-01 -5.477954e-01 6.656140e-01 -7.464845e-01 -5.034252e-01 -1.760061e-02
8.794872e+08 -2.902934e-01 -4.070276e-01 3.440589e-01 -6.452301e-01 4.683169e-01 -8.790621e-01 -5.089323e-01 -1.817447e-02
9.282051e+08 -4.459138e-01 -2.353275e-01 1.834618e-01 -7.047241e-01 2.494129e-01 -9.598838e-01 -5.147251e-01 -1.390042e-02
9.769231e+08 -5.067236e-01 -1.561321e-02 1.588354e-02 -7.262548e-01 2.108359e-02 -9.889425e-01 -5.180619e-01 -6.152904e-03
1.025641e+09 -4.628047e-01 2.069847e-01 -1.516717e-01 -7.105331e-01 -2.071167e-01 -9.672326e-01 -5.175860e-01 2.615228e-03
1.074359e+09 -3.226531e-01 3.876685e-01 -3.127354e-01 -6.578559e-01 -4.263688e-01 -8.951888e-01 -5.135670e-01 9.700010e-03
1.123077e+09 -1.124722e-01 4.877814e-01 -4.597394e-01 -5.684838e-01 -6.263625e-01 -7.732001e-01 -5.078346e-01 1.295929e-02
1.171795e+09 1.256074e-01 4.820109e-01 -5.832062e-01 -4.443527e-01 -7.941994e-01 -6.039417e-01 -5.033788e-01 1.161258e-02
1.220513e+09 3.395870e-01 3.667090e-01 -6.726593e-01 -2.912695e-01 -9.156363e-01 -3.953591e-01 -5.034844e-01 6.864029e-03
1.269231e+09 4.800376e-01 1.649711e-01 -7.193983e-01 -1.200529e-01 -9.788661e-01 -1.622119e-01 -5.104570e-01 1.950830e-03
1.317949e+09 5.156570e-01 -7.748026e-02 -7.198416e-01 5.482085e-02 -9.790620e-01 7.577991e-02 -5.244394e-01 1.294313e-03
1.366667e+09 4.434029e-01 -3.066730e-01 -6.771358e-01 2.189014e-01 -9.205558e-01 2.989563e-01 -5.430354e-01 8.998199e-03
1.415385e+09 2.866315e-01 -4.778004e-01 -5.997116e-01 3.616233e-01 -8.148592e-01 4.929649e-01 -5.619968e-01 2.750960e-02
1.464103e+09 8.343155e-02 -5.660234e-01 -4.977967e-01 4.780301e-01 -6.759097e-01 6.510987e-01 -5.764469e-01 5.712229e-02
1.512821e+09 -1.265688e-01 -5.671864e-01 -3.801009e-01 5.678903e-01 -5.155583e-01 7.730843e-01 -5.818626e-01 9.628320e-02
1.561538e+09 -3.105412e-01 -4.921361e-01 -2.520758e-01 6.333813e-01 -3.411977e-01 8.619299e-01 -5.744540e-01 1.421507e-01
1.610256e+09 -4.449895e-01 -3.601285e-01 -1.157667e-01 6.766469e-01 -1.555363e-01 9.206166e-01 -5.511115e-01 1.908805e-01
1.658974e+09 -5.147703e-01 -1.944720e-01 2.932969e-02 6.977183e-01 4.238838e-02 9.493115e-01 -5.093927e-01 2.373553e-01
1.707692e+09 -5.095081e-01 -2.124602e-02 1.844070e-01 6.916278e-01 2.561434e-01 9.411418e-01 -4.492080e-01 2.740984e-01
1.756410e+09 -4.448510e-01 1.119987e-01 3.391546e-01 6.609908e-01 4.615334e-01 8.897594e-01 -3.669389e-01 3.061377e-01
1.805128e+09 -3.211027e-01 2.166423e-01 5.126331e-01 5.843864e-01 6.953840e-01 7.905331e-01 -2.634662e-01 2.950068e-01
1.853846e+09 -1.667468e-01 2.347235e-01 6.713239e-01 4.511998e-01 9.108744e-01 6.104868e-01 -1.593508e-01 2.460081e-01
1.902564e+09 -3.469707e-02 1.621666e-01 7.921024e-01 2.602035e-01 1.074628e+00 3.514521e-01 -7.229790e-02 1.518945e-01
1.951282e+09 2.186836e-02 2.511515e-02 8.446509e-01 2.700832e-02 1.145626e+00 3.513616e-02 -2.770111e-02 2.190056e-02
2.000000e+09 -2.406938e-02 -1.165116e-01 8.115184e-01 -2.122189e-01 1.100327e+00 -2.892404e-01 -4.172034e-02 -1.173135e-01
