! Generated by EMerge - 3-port S-parameters
! File generated: 2025-07-03 19:46 
! Substrate: RO4003C
! h = 0.508 mm
! Design parameters:
! W0 = 1.13 mm # Width of the 50 ohm line
! L0 = 45 mm # Length of the 50 ohm line
! W_high = 0.272 mm # Width of the high impedance line
! L_high = 47.3 mm # Length of the high impedance line
! W_match = 0.61 mm # Width of the lambda/4 matching line
! L_match = 46 mm # Length of the lambda/4 matching line
! Air box height = 10 mm
! Run time = 3.032407979170481 min
# GHZ S MA R 50
1.000000e-01    1.845005e-01 1.657749e+02 6.956772e-01 -2.812431e+01 6.932457e-01 -2.896304e+01
                6.906761e-01 -2.813668e+01 3.996823e-01 1.434610e+02 5.904645e-01 -3.889351e+01
                6.882616e-01 -2.897541e+01 5.904640e-01 -3.889349e+01 4.038861e-01 1.417541e+02
2.256410e-01    1.876587e-01 1.475093e+02 7.009182e-01 -6.347890e+01 6.870558e-01 -6.533907e+01
                6.958732e-01 -6.350684e+01 3.923292e-01 9.759603e+01 5.909899e-01 -8.781503e+01
                6.821078e-01 -6.536699e+01 5.909875e-01 -8.781500e+01 4.161648e-01 9.366808e+01
3.512821e-01    1.928556e-01 1.279952e+02 7.119763e-01 -9.902847e+01 6.740775e-01 -1.015001e+02
                7.068406e-01 -9.907204e+01 3.740643e-01 5.118697e+01 5.916996e-01 -1.369114e+02
                6.692087e-01 -1.015436e+02 5.916939e-01 -1.369113e+02 4.388569e-01 4.544142e+01
4.769231e-01    1.970227e-01 1.060614e+02 7.286742e-01 -1.351482e+02 6.547460e-01 -1.369400e+02
                7.234023e-01 -1.352074e+02 3.434857e-01 2.468295e+00 5.910737e-01 1.736764e+02
                6.499972e-01 -1.369992e+02 5.910631e-01 1.736765e+02 4.695453e-01 -2.968671e+00
6.025641e-01    1.926676e-01 8.078365e+01 7.464257e-01 -1.722015e+02 6.359186e-01 -1.710606e+02
                7.410051e-01 -1.722765e+02 3.118010e-01 -5.126509e+01 5.859908e-01 1.239297e+02
                6.312823e-01 -1.711355e+02 5.859740e-01 1.239297e+02 4.998797e-01 -5.123791e+01
7.282051e-01    1.693463e-01 5.236647e+01 7.566413e-01 1.497726e+02 6.308464e-01 1.560936e+02
                7.511222e-01 1.496817e+02 3.073903e-01 -1.105170e+02 5.732374e-01 7.409326e+01
                6.262185e-01 1.560029e+02 5.732136e-01 7.409333e+01 5.178964e-01 -9.856476e+01
8.538462e-01    1.211234e-01 2.354928e+01 7.508546e-01 1.112088e+02 6.490551e-01 1.232289e+02
                7.453502e-01 1.111021e+02 3.532303e-01 -1.685602e+02 5.519500e-01 2.466336e+01
                6.442596e-01 1.231223e+02 5.519184e-01 2.466344e+01 5.157547e-01 -1.439884e+02
9.794872e-01    5.795859e-02 8.372747e+00 7.260917e-01 7.292075e+01 6.850795e-01 8.880449e+01
                7.207392e-01 7.279821e+01 4.350825e-01 1.409945e+02 5.250083e-01 -2.377160e+01
                6.799772e-01 8.868210e+01 5.249687e-01 -2.377152e+01 4.959546e-01 1.729543e+02
1.105128e+00    4.670298e-02 5.991303e+01 6.879283e-01 3.581451e+01 7.240036e-01 5.247359e+01
                6.828259e-01 3.567615e+01 5.208696e-01 9.749794e+01 4.986107e-01 -7.078685e+01
                7.185636e-01 5.233539e+01 4.985629e-01 -7.078678e+01 4.683265e-01 1.315643e+02
1.230769e+00    9.683411e-02 5.079709e+01 6.483594e-01 4.821573e-01 7.547974e-01 1.478177e+01
                6.435183e-01 3.280355e-01 5.874773e-01 5.834873e+01 4.798532e-01 -1.164236e+02
                7.490708e-01 1.462779e+01 4.797962e-01 -1.164235e+02 4.413509e-01 8.996392e+01
1.356410e+00    1.346395e-01 1.921266e+01 6.201783e-01 -3.312243e+01 7.728220e-01 -2.374322e+01
                6.155135e-01 -3.329225e+01 6.243191e-01 2.142983e+01 4.734768e-01 -1.612811e+02
                7.668961e-01 -2.391291e+01 4.734085e-01 -1.612810e+02 4.200389e-01 4.607835e+01
1.482051e+00    1.591800e-01 -1.547181e+01 6.125945e-01 -6.581084e+01 7.748756e-01 -6.277669e+01
                6.079494e-01 -6.599632e+01 6.279997e-01 -1.488685e+01 4.801631e-01 1.537640e+02
                7.688650e-01 -6.296206e+01 4.800804e-01 1.537640e+02 4.112199e-01 -9.809864e-01
1.607692e+00    1.845124e-01 -4.983587e+01 6.277670e-01 -9.901351e+01 7.576119e-01 -1.019091e+02
                6.229646e-01 -9.921465e+01 5.990925e-01 -5.171164e+01 4.968227e-01 1.080018e+02
                7.516611e-01 -1.021102e+02 4.967220e-01 1.080018e+02 4.234635e-01 -4.982882e+01
1.733333e+00    2.252892e-01 -8.343581e+01 6.571499e-01 -1.340471e+02 7.212824e-01 -1.404673e+02
                6.520741e-01 -1.342640e+02 5.452760e-01 -8.938204e+01 5.181789e-01 6.121081e+01
                7.155400e-01 -1.406842e+02 5.180567e-01 6.121084e+01 4.570337e-01 -9.744061e+01
1.858974e+00    2.863991e-01 -1.164601e+02 6.837114e-01 -1.711739e+02 6.732014e-01 -1.777176e+02
                6.783757e-01 -1.714067e+02 4.859615e-01 -1.275013e+02 5.397400e-01 1.369441e+01
                6.677647e-01 -1.779505e+02 5.395935e-01 1.369444e+01 4.992299e-01 -1.416534e+02
1.984615e+00    3.624551e-01 -1.483508e+02 6.924491e-01 1.504533e+02 6.245319e-01 1.466604e+02
                6.869867e-01 1.502040e+02 4.453026e-01 -1.659437e+02 5.611339e-01 -3.403395e+01
                6.194130e-01 1.464110e+02 5.609601e-01 -3.403392e+01 5.343130e-01 1.776795e+02
2.110256e+00    4.441360e-01 -1.787162e+02 6.788597e-01 1.120917e+02 5.824126e-01 1.124403e+02
                6.734476e-01 1.118251e+02 4.314484e-01 1.541373e+02 5.867766e-01 -8.170039e+01
                5.775695e-01 1.121734e+02 5.865707e-01 -8.170034e+01 5.527761e-01 1.390802e+02
2.235897e+00    5.195971e-01 1.521866e+02 6.496085e-01 7.485235e+01 5.483000e-01 7.932559e+01
                6.443892e-01 7.456532e+01 4.241729e-01 1.113034e+02 6.243237e-01 -1.295558e+02
                5.436917e-01 7.903742e+01 6.240770e-01 -1.295557e+02 5.476698e-01 9.964009e+01
2.361538e+00    5.694954e-01 1.219768e+02 6.209168e-01 3.858561e+01 5.256729e-01 4.635088e+01
                6.161509e-01 3.823630e+01 3.808511e-01 6.407113e+01 6.806047e-01 -1.783995e+02
                5.215192e-01 4.598899e+01 6.802969e-01 -1.783992e+02 5.039993e-01 5.449855e+01
2.487179e+00    6.098742e-01 9.958306e+01 5.982537e-01 6.198121e+00 5.084860e-01 1.768898e+01
                5.931620e-01 5.901810e+00 2.747237e-01 9.767416e+00 7.509567e-01 1.287320e+02
                5.038754e-01 1.739910e+01 7.505943e-01 1.287320e+02 4.191046e-01 -1.434953e+00
2.612821e+00    6.009500e-01 7.381987e+01 5.988011e-01 -2.754152e+01 5.193913e-01 -1.209396e+01
                5.936846e-01 -2.786273e+01 1.170632e-01 -7.718304e+01 7.899864e-01 7.305194e+01
                5.146596e-01 -1.241086e+01 7.895639e-01 7.305212e+01 3.218328e-01 -7.673525e+01
2.738462e+00    5.480029e-01 4.964555e+01 6.134367e-01 -6.217792e+01 5.628999e-01 -4.283526e+01
                6.081557e-01 -6.251449e+01 1.638280e-01 1.555823e+02 7.685097e-01 1.728378e+01
                5.576744e-01 -4.317600e+01 7.680635e-01 1.728611e+01 2.937785e-01 -1.552191e+02
2.864103e+00    4.473603e-01 2.941445e+01 6.327476e-01 -9.858870e+01 6.305467e-01 -7.712852e+01
                6.272212e-01 -9.894844e+01 2.763488e-01 1.072905e+02 7.185878e-01 -3.593777e+01
                6.246362e-01 -7.748353e+01 7.181244e-01 -3.593812e+01 2.809685e-01 1.513584e+02
2.989744e+00    3.424791e-01 2.111132e+01 6.343424e-01 -1.369795e+02 6.931655e-01 -1.151642e+02
                6.287531e-01 -1.373572e+02 3.863465e-01 7.750055e+01 6.647753e-01 -8.720349e+01
                6.865619e-01 -1.155378e+02 6.643094e-01 -8.720373e+01 2.674159e-01 1.247263e+02
3.115385e+00    3.389854e-01 2.222270e+01 6.009138e-01 -1.750110e+02 7.237016e-01 -1.546589e+02
                5.956001e-01 -1.754076e+02 5.110634e-01 4.682620e+01 6.107953e-01 -1.362922e+02
                7.167131e-01 -1.550517e+02 6.103332e-01 -1.362923e+02 3.121406e-01 1.046989e+02
3.241026e+00    3.968258e-01 6.056039e+00 5.526457e-01 1.492516e+02 7.319270e-01 1.659922e+02
                5.481050e-01 1.488210e+02 5.996788e-01 1.147851e+01 5.771623e-01 1.777247e+02
                7.250294e-01 1.655602e+02 5.767181e-01 1.777274e+02 3.549641e-01 7.258494e+01
3.366667e+00    4.257759e-01 -1.214487e+01 5.187606e-01 1.217775e+02 7.459633e-01 1.295614e+02
                5.138530e-01 1.213569e+02 6.392495e-01 -2.662648e+01 5.699950e-01 1.311148e+02
                7.383357e-01 1.291497e+02 5.694761e-01 1.311120e+02 3.441854e-01 2.660017e+01
3.492308e+00    3.716281e-01 -4.175552e+01 5.435853e-01 9.416248e+01 7.590380e-01 8.994457e+01
                5.384552e-01 9.372275e+01 5.949117e-01 -7.079995e+01 5.939732e-01 8.251043e+01
                7.512036e-01 8.951398e+01 5.933981e-01 8.250760e+01 2.705921e-01 -4.425979e+01
3.617949e+00    2.604327e-01 -7.116210e+01 6.359008e-01 6.236712e+01 7.327026e-01 4.912720e+01
                6.298528e-01 6.191204e+01 4.857753e-01 -1.222707e+02 5.980824e-01 2.993133e+01
                7.250281e-01 4.868160e+01 5.974650e-01 2.992773e+01 3.216237e-01 -1.411076e+02
3.743590e+00    1.416351e-01 -9.807233e+01 7.362297e-01 2.343960e+01 6.662969e-01 1.115470e+01
                7.291667e-01 2.296990e+01 3.809173e-01 1.783151e+02 5.542126e-01 -2.225140e+01
                6.592081e-01 1.069547e+01 5.536108e-01 -2.225657e+01 4.897988e-01 1.516020e+02
3.869231e+00    3.947307e-02 -1.152871e+02 7.920705e-01 -1.815376e+01 6.119947e-01 -2.285744e+01
                7.843606e-01 -1.865218e+01 3.472976e-01 1.149378e+02 4.953121e-01 -7.094059e+01
                6.053864e-01 -2.331525e+01 4.951115e-01 -7.097727e+01 6.062320e-01 1.048916e+02
3.994872e+00    3.357397e-02 -2.427488e+01 8.019639e-01 -5.943728e+01 5.992045e-01 -5.477884e+01
                7.941393e-01 -5.993272e+01 3.712678e-01 6.077249e+01 4.650095e-01 -1.134438e+02
                5.926095e-01 -5.526815e+01 4.643703e-01 -1.134451e+02 6.455543e-01 7.062519e+01
4.120513e+00    5.068943e-02 -8.028434e+01 7.939447e-01 -9.964893e+01 6.093976e-01 -8.794535e+01
                7.861297e-01 -1.001593e+02 3.871556e-01 1.563330e+01 4.700650e-01 -1.557928e+02
                6.025697e-01 -8.844789e+01 4.693910e-01 -1.557955e+02 6.362104e-01 3.775507e+01
4.246154e+00    9.162041e-02 -1.778296e+02 7.711365e-01 -1.392419e+02 6.317614e-01 -1.231043e+02
                7.634935e-01 -1.397676e+02 3.813791e-01 -2.444653e+01 5.133584e-01 1.599301e+02
                6.245593e-01 -1.236209e+02 5.125788e-01 1.599269e+02 5.827188e-01 3.396193e+00
4.371795e+00    2.024261e-01 1.218325e+02 7.308312e-01 -1.775961e+02 6.489618e-01 -1.604105e+02
                7.235812e-01 -1.781394e+02 3.560122e-01 -6.728753e+01 5.850875e-01 1.112271e+02
                6.414561e-01 -1.609425e+02 5.841379e-01 1.112233e+02 4.912686e-01 -3.867314e+01
4.497436e+00    3.110240e-01 7.855373e+01 6.932172e-01 1.466159e+02 6.434839e-01 1.607260e+02
                6.865116e-01 1.460375e+02 2.946251e-01 -1.246547e+02 6.565450e-01 5.697321e+01
                6.359463e-01 1.601728e+02 6.553332e-01 5.696398e+01 3.955464e-01 -9.984301e+01
4.623077e+00    4.010728e-01 4.683363e+01 6.891472e-01 1.145769e+02 6.041815e-01 1.250929e+02
                6.803790e-01 1.140341e+02 2.116151e-01 1.491347e+02 6.909968e-01 -6.481699e-01
                5.957416e-01 1.245794e+02 6.900188e-01 -6.581403e-01 3.907785e-01 1.796466e+02
4.748718e+00    4.037623e-01 1.511732e+01 7.231861e-01 7.742500e+01 5.635078e-01 9.067157e+01
                7.150671e-01 7.685834e+01 2.318989e-01 5.627046e+01 6.489515e-01 -5.710773e+01
                5.562739e-01 9.011142e+01 6.478747e-01 -5.710992e+01 5.006477e-01 1.147677e+02
4.874359e+00    3.709247e-01 -1.190175e+01 7.506535e-01 3.833430e+01 5.547407e-01 5.979103e+01
                7.423294e-01 3.775017e+01 2.719946e-01 -6.933159e+00 6.041279e-01 -1.096859e+02
                5.476433e-01 5.921606e+01 6.030137e-01 -1.096902e+02 5.650010e-01 6.868573e+01
5.000000e+00    3.023364e-01 -3.571240e+01 7.560765e-01 -2.778615e+00 5.896443e-01 2.833711e+01
                7.477965e-01 -3.372451e+00 3.037542e-01 -5.084438e+01 5.832830e-01 -1.610995e+02
                5.822048e-01 2.774753e+01 5.821425e-01 -1.611037e+02 5.567816e-01 2.985059e+01
