! Sonnet Data File
! From: sonnet Version : 18.53-Lite
! From Emgraph Data: 
! Data File Written: 07/02/2025 05:58:26
!< HDATE 07/02/2025 05:53:16
!< MDATE 07/02/2025 05:53:16
!< PARAMS
!< W_50 = 1.13
!< L0 = 45.0
!< W_100 = 0.272
!< L1 = 47.3
!< END PARAMS
# GHZ S MA R 50.00000
0.100000000000000 0.3292949264789 142.29002394756 0.6648748204599 -18.31565918527 0.6651958488391 -18.21865414013
                  0.6648748204599 -18.31565918527 0.3822040856783 125.05493127974 0.6325742287789 -28.95729120238
                  0.6651958488392 -18.21865414014 0.6325742287789 -28.95729120238 0.3816870105275 125.21474556084
0.120000000000000 0.3287872219838 134.77829194798 0.6648293656457 -21.96205062939 0.6652144356215 -21.84583595202
                  0.6648293656457 -21.96205062939 0.4008010064233 116.43558051028 0.6206462645956 -34.43620965560
                  0.6652144356215 -21.84583595202 0.6206462645956 -34.43620965560 0.3999340813929 116.59273065276
0.140000000000000 0.3280391629999 127.17123159253 0.6645839324323 -25.62010800295 0.6651410734048 -25.49482793562
                  0.6645839324322 -25.62010800294 0.4197521742356 108.57134801159 0.6075641413192 -39.74676751163
                  0.6651410734047 -25.49482793562 0.6075641413192 -39.74676751164 0.4189075957728 108.75568840247
0.160000000000000 0.3271006530220 119.50218794570 0.6641829679123 -29.28058357888 0.6649438609718 -29.15319302367
                  0.6641829679123 -29.28058357888 0.4386710985205 101.40623186846 0.5936918100695 -44.89816542697
                  0.6649438609718 -29.15319302367 0.5936918100695 -44.89816542697 0.4380039515285 101.63206205913
0.180000000000000 0.3260834665132 111.79627339366 0.6637022219866 -32.93805196517 0.6646576656708 -32.81220739709
                  0.6637022219866 -32.93805196517 0.4572265146859 94.879380376954 0.5793021755303 -49.89873929971
                  0.6646576656708 -32.81220739709 0.5793021755303 -49.89873929971 0.4567581743195 95.148643350471
0.200000000000000 0.3251191362397 104.06792743393 0.6632171520975 -36.59115520750 0.6643406188039 -36.46787671319
                  0.6632171520975 -36.59115520750 0.4751646988508 88.929434625382 0.5646097997996 -54.75533907945
                  0.6643406188039 -36.46787671319 0.5646097997996 -54.75533907945 0.4748427744404 89.236310517575
0.220000000000000 0.3243274612502 96.322826605804 0.6627827418710 -40.24140822336 0.6640439746109 -40.11997792365
                  0.6627827418710 -40.24140822336 0.4923101420037 83.497114042765 0.5497906246146 -59.47369285247
                  0.6640439746109 -40.11997792365 0.5497906246146 -59.47369285247 0.4920501000293 83.832037574714
0.240000000000000 0.3238013624869 88.561275076210 0.6624267509986 -43.89171460777 0.6637982280838 -43.77048779034
                  0.6624267509986 -43.89171460777 0.5085555641304 78.526732532846 0.5349917592380 -64.05894315715
                  0.6637982280838 -43.77048779034 0.5349917592380 -64.05894315715 0.5082678847836 78.879224867139
0.260000000000000 0.3236040202031 80.781387367704 0.6621518538230 -47.54517023489 0.6636109840196 -47.42217352676
                  0.6621518538230 -47.54517023489 0.5238481935328 73.967010204996 0.5203360053240 -68.51603016027
                  0.6636109840196 -47.42217352676 0.5203360053240 -68.51603016027 0.5234544813491 74.327381703813
0.280000000000000 0.3237726490621 72.981411622001 0.6619418643308 -51.20430739926 0.6634710698380 -51.07762211546
                  0.6619418643308 -51.20430739926 0.5381760926176 69.771405972625 0.5059243825483 -72.84987715562
                  0.6634710698380 -51.07762211546 0.5059243825483 -72.84987715562 0.5376171846694 70.131607093141
0.300000000000000 0.3243246716897 65.161123387277 0.6617688510876 -54.87072925427 0.6633548265992 -54.73870905351
                  0.6617688510876 -54.87072925427 0.5515562535360 65.898129708470 0.4918382419939 -77.06543700046
                  0.6633548265992 -54.73870905351 0.4918382419939 -77.06543700046 0.5507948677253 66.252037882393
0.320000000000000 0.3252638456020 57.322460410665 0.6615994877979 -58.54502338501 0.6632322559764 -58.40640093326
                  0.6615994877979 -58.54502338501 0.5640250029178 62.309950730639 0.4781414738928 -81.16766872533
                  0.6632322559764 -58.40640093326 0.4781414738928 -81.16766872533 0.5630449037663 62.653321246225
0.340000000000000 0.3265852404994 49.469624112559 0.6613999977600 -62.22684714315 0.6630719943905 -62.08077148010
                  0.6613999977600 -62.22684714315 0.5756306567416 58.973887270061 0.4648828191966 -85.16149261455
                  0.6630719943905 -62.08077148010 0.4648828191966 -85.16149261455 0.5744337822796 59.304128314978
0.360000000000000 0.3282787671675 41.608849005025 0.6611396012493 -65.91510173141 0.6628448514653 -65.76113251540
                  0.6611396012493 -65.91510173141 0.5864281138646 55.860835778746 0.4520981498575 -89.05174887984
                  0.6628448514653 -65.76113251540 0.4520981498575 -89.05174887984 0.5850306625242 56.176712846512
0.380000000000000 0.3303313665092 33.747993778221 0.6607926329225 -69.60813780842 0.6625260320928 -69.44621098723
                  0.6607926329225 -69.60813780842 0.5964750042479 52.945178894294 0.4398125944113 -92.84316924547
                  0.6625260320928 -69.44621098723 0.4398125944113 -92.84316924547 0.5949031459997 53.246515218918
0.400000000000000 0.3327281359764 25.896061968035 0.6603395960095 -73.30395656814 0.6620963181685 -73.13432951409
                  0.6603395960095 -73.30395656814 0.6058290155268 50.204396510353 0.4280424382959 -96.54036296814
                  0.6620963181685 -73.13432951409 0.4280424382959 -96.54036296814 0.6041146722281 50.491811338142
0.420000000000000 0.3354527183637 18.062723466569 0.6597674409178 -77.00038639535 0.6615425230961 -76.82356873908
                  0.6597674409178 -77.00038639535 0.6145460604226 47.618695682368 0.4167967690477 -100.1478163999
                  0.6615425230961 -76.82356873908 0.4167967690477 -100.1478163999 0.6127230969915 47.893405536169
0.440000000000000 0.3384872733034 10.257879254875 0.6590693327800 -80.69522753514 0.6608574936821 -80.51190607287
                  0.6590693327798 -80.69522753516 0.6226790090440 45.170671437385 0.4060788503767 -103.6699043469
                  0.6608574936817 -80.51190607288 0.4060788503767 -103.6699043469 0.6207801684690 45.434363550322
0.460000000000000 0.3418123146930 2.4912864213226 0.6582441116372 -84.38636624564 0.6600398252134 -84.19733635358
                  0.6582441116372 -84.38636624564 0.6302768108462 42.845009293480 0.3958872104641 -107.1109082750
                  0.6600398252134 -84.19733635358 0.3958872104641 -107.1109082750 0.6283317267100 43.099774304227
0.480000000000000 0.3454066073907 -5.227761317421 0.6572955563233 -88.07186403688 0.6590933016305 -87.87798116280
                  0.6572955563233 -88.07186403688 0.6373839696389 40.628235705315 0.3862164548385 -110.4750299477
                  0.6590933016305 -87.87798116280 0.3862164548385 -110.4750299477 0.6354184428786 40.876520789740
0.500000000000000 0.3492471640000 -12.89071176941 0.6562314818803 -91.75002482555 0.6580259827600 -91.55218228277
                  0.6562314818803 -91.75002482555 0.6440404355678 38.508510253054 0.3770578849269 -113.7663855501
                  0.6580259827600 -91.55218228277 0.3770578849269 -113.7663855501 0.6420767757541 38.753042285851
0.520000000000000 0.3533092436040 -20.48999319910 0.6550627009106 -95.41943614753 0.6568489639790 -95.21856095258
                  0.6550627009106 -95.41943614753 0.6502819224902 36.475439388696 0.3684000711102 -116.9889742864
                  0.6568489639790 -95.21856095258 0.3684000711102 -116.9889742864 0.6483397221581 36.719090598136
0.540000000000000 0.3575662555009 -28.01919422071 0.6538019637989 -99.07897909192 0.6555750663279 -98.87602751031
                  0.6538019637989 -99.07897909192 0.6561404682095 34.519891570891 0.3602294995439 -120.1466342660
                  0.6555750663279 -98.87602751031 0.3602294995439 -120.1466342660 0.6542371007991 34.765507496002
0.560000000000000 0.3619896082264 -35.47316123585 0.6524630483732 -102.7278096669 0.6542178028222 -102.5237482560
                  0.6524630483732 -102.7278096669 0.6616449449130 32.633811175071 0.3525312845272 -123.2430086116
                  0.6542178028222 -102.5237482560 0.3525312845272 -123.2430086116 0.6597954695579 32.884051658741
0.580000000000000 0.3665486476680 -42.84801191385 0.6510601090316 -106.3653236995 0.6527907855831 -106.1610950001
                  0.6510601090316 -106.3653236995 0.6668213385193 30.810045378914 0.3452898394773 -126.2815353524
                  0.6527907855831 -106.1610950001 0.3452898394773 -126.2815353524 0.6650379889725 31.067279412057
0.600000000000000 0.3712107906941 -50.14108673064 0.6496072783065 -109.9911186202 0.6513074905593 -109.7876005303
                  0.6496072783065 -109.9911186202 0.6716928170487 29.042198562098 0.3384894135256 -129.2654581242
                  0.6513074905593 -109.7876005303 0.3384894135256 -129.2654581242 0.6699844552606 29.308461482933
0.620000000000000 0.3759418547916 -57.35086611241 0.6481184453850 -113.6049598078 0.6497811999372 -113.4029286849
                  0.6481184453850 -113.6049598078 0.6762797101074 27.324518031565 0.3321144747941 -132.1978469349
                  0.6497811999372 -113.4029286849 0.3321144747941 -132.1978469349 0.6746515235613 27.601515368450
0.640000000000000 0.3807065164647 -64.47687255159 0.6466071371501 -117.2067533605 0.6482249907309 -117.0068566798
                  0.6466071371501 -117.2067533605 0.6805995011526 25.651806054188 0.3261499728775 -135.0816205644
                  0.6482249907309 -117.0068566798 0.3261499728775 -135.0816205644 0.6790530309831 25.940942412620
0.660000000000000 0.3854688239145 -71.51956756770 0.6450864561127 -120.7965245073 0.6466517177384 -120.5992644558
                  0.6450864561127 -120.7965245073 0.6846668744150 24.019350835789 0.3205815215936 -137.9195672930
                  0.6466517177384 -120.5992644558 0.3205815215936 -137.9195672930 0.6832003307774 24.321767468514
0.680000000000000 0.3901927110397 -78.48024812593 0.6435690526243 -124.3744005583 0.6450739856927 -124.1801273488
                  0.6435690526243 -124.3744005583 0.6884938175102 22.422870586046 0.3153955304883 -140.7143638746
                  0.6450739856927 -124.1801273488 0.3153955304883 -140.7143638746 0.6871025927950 22.739482614727
0.700000000000000 0.3948424823645 -85.36094532191 0.6420671191946 -127.9405976832 0.6435041182888 -127.7495104645
                  0.6420671191946 -127.9405976832 0.6920897665059 20.858466947390 0.3105793000946 -143.4685935945
                  0.6435041182888 -127.7495104645 0.3105793000946 -143.4685935945 0.6907670611752 21.189996472849
0.720000000000000 0.3993832532169 -92.16432768227 0.6405923977784 -131.4954110961 0.6419541292668 -131.3075643308
                  0.6405923977784 -131.4954110961 0.6954617802244 19.322585541317 0.3061210881182 -146.1847640370
                  0.6419541292668 -131.3075643308 0.3061210881183 -146.1847640370 0.6941992768936 19.669589663038
0.740000000000000 0.4037828161883 -98.89345939471 0.6391558200609 -135.0393638516 0.6404353232920 -134.8546773595
                  0.6391558200609 -135.0393638516 0.6986153519680 17.811849951032 0.3020099152545 -148.8649996637
                  0.6404353232920 -134.8546773595 0.3020099152545 -148.8649996637 0.6974038965306 18.174743119520
0.760000000000000 0.4080094990931 -105.5518740671 0.6377680548640 -138.5729988096 0.6389588078900 -138.3912700469
                  0.6377680548640 -138.5729988096 0.7015535039325 16.323186099057 0.2982361194863 -151.5114360934
                  0.6389588078900 -138.3912700469 0.2982361194863 -151.5114360934 0.7003837549606 16.702259025441
0.780000000000000 0.4120316709742 -112.1436670691 0.6364398000923 -142.0967548544 0.6375357526318 -141.9176723689
                  0.6364398000923 -142.0967548544 0.7042767267951 14.853921114693 0.2947913785120 -154.1265410075
                  0.6375357526318 -141.9176723689 0.2947913785120 -154.1265410075 0.7031397627504 15.249356380299
0.800000000000000 0.4158199862282 -118.6732786407 0.6351813022394 -145.6111480113 0.6361768793892 -145.4343052325
                  0.6351813022394 -145.6111480113 0.7067841004294 13.401617364157 0.2916682925316 -156.7127789829
                  0.6361768793892 -145.4343052325 0.2916682925316 -156.7127789829 0.7056719764255 13.813500578432
0.820000000000000 0.4193475235317 -125.1454343792 0.6340023143318 -149.1167701226 0.6348923973250 -148.9416788623
                  0.6340023143318 -149.1167701226 0.7090735211572 11.964050248049 0.2888603629095 -159.2726237999
                  0.6348923973250 -148.9416788623 0.2888603629095 -159.2726237999 0.7079797604299 12.392377974633
0.840000000000000 0.4225898766805 -131.5650951764 0.6329120417140 -152.6142877665 0.6336919309920 -152.4403909736
                  0.6329120417140 -152.6142877665 0.7111419281339 10.539187601265 0.2863619624134 -161.8085690291
                  0.6336919309920 -152.4403909736 0.2863619624134 -161.8085690291 0.7100619414562 10.983872397164
0.860000000000000 0.4255252030538 -137.9374155041 0.6319190761529 -156.1044409042 0.6325844418688 -155.9311243514
                  0.6319190761529 -156.1044409042 0.7129855261775 9.1251702098169 0.2841682995077 -164.3231367270
                  0.6325844418688 -155.9311243514 0.2841682995077 -164.3231367270 0.7119169543482 9.5860431406605
0.880000000000000 0.4281342362092 -144.2677088101 0.6310313198643 -159.5880408006 0.6315781446409 -159.4146434936
                  0.6310313198643 -159.5880408006 0.7146000022999 7.7202930451815 0.2822753787949 -166.8188841387
                  0.6315781446409 -159.4146434936 0.2822753787949 -166.8188841387 0.7135429784854 8.1971040765704
0.900000000000000 0.4304002697760 -150.5614187538 0.6302559019305 -163.0659668411 0.6306804202892 -162.8917900342
                  0.6302559019305 -163.0659668411 0.7159807332024 6.3229868905700 0.2806799593219 -169.2984083573
                  0.6306804202892 -162.8917900342 0.2806799593219 -169.2984083573 0.7149380634984 6.8154035993816
0.920000000000000 0.4323091203219 -156.8240950559 0.6295990902144 -166.5391619540 0.6298977285881 -166.3634767386
                  0.6295990902144 -166.5391619540 0.7171229810432 4.9318000948421 0.2793795121414 -171.7643489308
                  0.6298977285881 -166.3634767386 0.2793795121414 -171.7643489308 0.7161002432265 5.4394051847585
0.940000000000000 0.4338490771703 -163.0613728360 0.6290662023158 -170.0086264369 0.6292355229808 -169.8306799358
                  0.6290662023158 -170.0086264369 0.7180220748441 3.5453802399901 0.2783721782692 -174.2193884391
                  0.6292355229808 -169.8306799358 0.2783721782692 -174.2193884391 0.7170276369247 4.0676683751144
0.960000000000000 0.4350108472167 -169.2789544421 0.6286615193661 -173.4754100839 0.6286981709992 -173.2944303426
                  0.6286615193661 -173.4754100839 0.7186735749764 2.1624555491611 0.2776567279988 -176.6662510912
                  0.6286981709992 -173.2944303426 0.2776567279988 -176.6662510912 0.7177185368143 2.6988300339672
0.980000000000000 0.4357875025905 -175.4825929223 0.6283882065372 -176.9406026025 0.6282888834454 -176.7558023107
                  0.6283882065372 -176.9406026025 0.7190734182602 0.7818158963081 0.2772325224190 -179.1076994246
                  0.6282888834454 -176.7558023107 0.2772325224190 -179.1076994246 0.7181714811304 1.3315857272896
1.000000000000000 0.4361744385352 178.32192357373 0.6282482440408 179.59467759787 0.6280096554423 179.78409838908
                  0.6282482440408 179.59467759787 0.7192180413399 -0.597706692642 0.2770994779030 178.45347077726
                  0.6280096554423 179.78409838908 0.2770994779030 178.45347077726 0.7183853118586 -0.035328898500
1.020000000000000 0.4361693481242 172.12878706875 0.6282423721018 176.12929608090 0.6278612221890 176.32414806131
                  0.6282423721018 176.12929608090 0.7191044801902 -1.977258132988 0.2772580342588 176.01443718707
                  0.6278612221890 176.32414806131 0.2772580342588 176.01443718707 0.7183592163953 -1.403156864041
1.040000000000000 0.4357722194085 165.93218526025 0.6283700528907 172.66211628909 0.6278430317999 172.86321961806
                  0.6283700528907 172.66211628909 0.7187304438859 -3.357983035131 0.2777091271210 173.57235904557
                  0.6278430317999 172.86321961806 0.2777091271210 173.57235904557 0.7180927524396 -2.773138846201
1.060000000000000 0.4349853592576 159.72631784640 0.6286294516704 169.19201439615 0.6279532369483 169.40019786919
                  0.6286294516704 169.19201439615 0.7180943611654 -4.741046170592 0.2784541649833 171.12438641452
                  0.6279532369483 169.40019786919 0.2784541649833 171.12438641452 0.7175858555641 -4.146532520811
1.080000000000000 0.4338134462917 153.50541443994 0.6290174384163 165.71789479268 0.6281887061434 165.93399527097
                  0.6290174384163 165.71789479268 0.7171953988265 -6.127654690111 0.2794950110049 168.66767023514
                  0.6281887061434 165.93399527097 0.2794950110049 168.66767023514 0.7168388291273 -5.524632366831
1.100000000000000 0.4322636124021 147.26375516250 0.6295296098646 162.23870587312 0.6285450542973 162.46356782727
                  0.6295296098646 162.23870587312 0.7160334516104 -7.519081121016 0.2808339693819 166.19937276742
                  0.6285450542973 162.46356782727 0.2808339693819 166.19937276742 0.7158523164843 -6.908790031667
1.120000000000000 0.4303455473853 140.99569545862 0.6301603303429 158.75345576218 0.6290166907828 158.98793081945
                  0.6301603303429 158.75345576218 0.7146091038582 -8.916687147303 0.2824737757629 163.71667785815
                  0.6290166907828 158.98793081945 0.2824737757629 163.71667785815 0.7146272557492 -8.300435336579
1.140000000000000 0.4280716128912 134.69569703222 0.6309027880510 155.26122753392 0.6295968816252 155.50617397305
                  0.6309027880510 155.26122753392 0.7129235636386 -10.32194812934 0.2844175911689 161.21680030514
                  0.6295968816252 155.50617397305 0.2844175911689 161.21680030514 0.7131648174625 -9.701097956869
1.160000000000000 0.4254569398821 128.35836656953 0.6317490624357 151.76119329135 0.6302778214922 152.01747549971
                  0.6317490624357 151.76119329135 0.7109785698222 -11.73647824802 0.2866689996099 158.69699338742
                  0.6302778214922 152.01747549971 0.2866689996099 158.69699338742 0.7114663250234 -11.11242974241
1.180000000000000 0.4225194719240 121.97850225962 0.6326901994530 148.25262619624 0.6310507121966 148.52111418790
                  0.6326901994530 148.25262619624 0.7087762711334 -13.16205609496 0.2892320115730 156.15455355847
                  0.6310507121966 148.52111418790 0.2892320115730 156.15455355847 0.7095331561449 -12.53622758323
1.200000000000000 0.4192799162379 115.55114456885 0.6337162965408 144.73490934401 0.6319058491985 145.01647851481
                  0.6337162965408 144.73490934401 0.7063190734743 -14.60065057346 0.2921110785440 153.58682163071
                  0.6319058491985 145.01647851481 0.2921110785440 153.58682163071 0.7073666207952 -13.97445676510
1.220000000000000 0.4157615911607 109.07162357543 0.6348166074970 141.20754064746 0.6328327257063 141.50307198630
                  0.6348166074970 141.20754064746 0.7036094491827 -16.05444724721 0.2953111256946 150.99118072623
                  0.6328327257063 141.50307198630 0.2953111256946 150.99118072623 0.7049678084921 -15.42927501801
