! Generated by EMerge - 2-port S-parameters
! File generated: 2026-02-14 19:14 
! Substrate: RO4003C
! h = 0.508 mm
! Design parameters:
! W0 = 1.1 mm
! L0 = 20 mm
! Air box height = 5.08 mm
! Run time = 0.57 min
# GHZ S RI R 50
1.000000e-01  1.341616e-02  6.065002e-04  9.812332e-01  -6.914673e-02  9.817711e-01  -6.918592e-02  1.532017e-02  5.262619e-04
2.256410e-01  1.362135e-02  1.305198e-03  9.712020e-01  -1.554590e-01  9.717345e-01  -1.555441e-01  1.546249e-02  1.130152e-03
3.512821e-01  1.397340e-02  1.942429e-03  9.536006e-01  -2.405452e-01  9.541238e-01  -2.406756e-01  1.570630e-02  1.692775e-03
4.769231e-01  1.445606e-02  2.487447e-03  9.285660e-01  -3.237450e-01  9.290760e-01  -3.239198e-01  1.604043e-02  2.193676e-03
6.025641e-01  1.504697e-02  2.913460e-03  8.962923e-01  -4.044125e-01  8.967854e-01  -4.046303e-01  1.644957e-02  2.615214e-03
7.282051e-01  1.571859e-02  3.198793e-03  8.570294e-01  -4.819209e-01  8.575020e-01  -4.821802e-01  1.691494e-02  2.943383e-03
8.538462e-01  1.643929e-02  3.327851e-03  8.110810e-01  -5.556678e-01  8.115296e-01  -5.559666e-01  1.741509e-02  3.168470e-03
9.794872e-01  1.717466e-02  3.291846e-03  7.588023e-01  -6.250793e-01  7.592236e-01  -6.254154e-01  1.792690e-02  3.285537e-03
1.105128e+00  1.788892e-02  3.089253e-03  7.005974e-01  -6.896145e-01  7.009882e-01  -6.899855e-01  1.842655e-02  3.294701e-03
1.230769e+00  1.854642e-02  2.725975e-03  6.369161e-01  -7.487697e-01  6.372738e-01  -7.491726e-01  1.889064e-02  3.201195e-03
1.356410e+00  1.911311e-02  2.215218e-03  5.682511e-01  -8.020818e-01  5.685729e-01  -8.025139e-01  1.929722e-02  3.015209e-03
1.482051e+00  1.955800e-02  1.577075e-03  4.951337e-01  -8.491327e-01  4.954172e-01  -8.495908e-01  1.962682e-02  2.751517e-03
1.607692e+00  1.985452e-02  8.378184e-04  4.181301e-01  -8.895518e-01  4.183733e-01  -8.900324e-01  1.986341e-02  2.428899e-03
1.733333e+00  1.998166e-02  2.895378e-05  3.378373e-01  -9.230188e-01  3.380386e-01  -9.235185e-01  1.999512e-02  2.069379e-03
1.858974e+00  1.992502e-02  -8.139599e-04  2.548788e-01  -9.492671e-01  2.550365e-01  -9.497822e-01  2.001494e-02  1.697320e-03
1.984615e+00  1.967748e-02  -1.652661e-03  1.698994e-01  -9.680850e-01  1.700124e-01  -9.686117e-01  1.992112e-02  1.338386e-03
2.110256e+00  1.923970e-02  -2.447666e-03  8.356085e-02  -9.793181e-01  8.362837e-02  -9.798525e-01  1.971741e-02  1.018444e-03
2.235897e+00  1.862030e-02  -3.159825e-03  -3.463096e-03  -9.828701e-01  -3.441560e-03  -9.834084e-01  1.941303e-02  7.624223e-04
2.361538e+00  1.783567e-02  -3.751883e-03  -9.049206e-02  -9.787045e-01  -9.051667e-02  -9.792427e-01  1.902246e-02  5.931857e-04
2.487179e+00  1.690958e-02  -4.190011e-03  -1.768440e-01  -9.668444e-01  -1.769146e-01  -9.673785e-01  1.856493e-02  5.304741e-04
2.612821e+00  1.587243e-02  -4.445216e-03  -2.618406e-01  -9.473730e-01  -2.619566e-01  -9.478992e-01  1.806382e-02  5.899422e-04
2.738462e+00  1.476023e-02  -4.494602e-03  -3.448122e-01  -9.204331e-01  -3.449729e-01  -9.209475e-01  1.754570e-02  7.823475e-04
2.864103e+00  1.361336e-02  -4.322416e-03  -4.251035e-01  -8.862261e-01  -4.253077e-01  -8.867250e-01  1.703939e-02  1.112922e-03
2.989744e+00  1.247517e-02  -3.920845e-03  -5.020783e-01  -8.450111e-01  -5.023245e-01  -8.454908e-01  1.657479e-02  1.580952e-03
3.115385e+00  1.139036e-02  -3.290518e-03  -5.751246e-01  -7.971026e-01  -5.754110e-01  -7.975596e-01  1.618165e-02  2.179601e-03
3.241026e+00  1.040341e-02  -2.440707e-03  -6.436598e-01  -7.428689e-01  -6.439843e-01  -7.432999e-01  1.588838e-02  2.895966e-03
3.366667e+00  9.556816e-03  -1.389198e-03  -7.071350e-01  -6.827291e-01  -7.074954e-01  -6.831309e-01  1.572078e-02  3.711394e-03
3.492308e+00  8.889556e-03  -1.618406e-04  -7.650399e-01  -6.171500e-01  -7.654335e-01  -6.175196e-01  1.570095e-02  4.602037e-03
3.617949e+00  8.435516e-03  1.208210e-03  -8.169066e-01  -5.466426e-01  -8.173306e-01  -5.469773e-01  1.584625e-02  5.539632e-03
3.743590e+00  8.222160e-03  2.681540e-03  -8.623138e-01  -4.717586e-01  -8.627651e-01  -4.720560e-01  1.616844e-02  6.492475e-03
3.869231e+00  8.269392e-03  4.213769e-03  -9.008901e-01  -3.930859e-01  -9.013655e-01  -3.933437e-01  1.667307e-02  7.426569e-03
3.994872e+00  8.588698e-03  5.757055e-03  -9.323173e-01  -3.112439e-01  -9.328134e-01  -3.114601e-01  1.735903e-02  8.306877e-03
4.120513e+00  9.182578e-03  7.261737e-03  -9.563331e-01  -2.268791e-01  -9.568463e-01  -2.270522e-01  1.821842e-02  9.098661e-03
4.246154e+00  1.004432e-02  8.678076e-03  -9.727332e-01  -1.406599e-01  -9.732598e-01  -1.407885e-01  1.923669e-02  9.768827e-03
4.371795e+00  1.115810e-02  9.958012e-03  -9.813734e-01  -5.327128e-02  -9.819095e-01  -5.335431e-02  2.039302e-02  1.028724e-02
4.497436e+00  1.249946e-02  1.105688e-02  -9.821707e-01  3.459050e-02  -9.827126e-01  3.455375e-02  2.166096e-02  1.062795e-02
4.623077e+00  1.403606e-02  1.193500e-02  -9.751043e-01  1.222233e-01  -9.756480e-01  1.222332e-01  2.300939e-02  1.077026e-02
4.748718e+00  1.572883e-02  1.255912e-02  -9.602159e-01  2.089248e-01  -9.607574e-01  2.089814e-01  2.440363e-02  1.069961e-02
4.874359e+00  1.753327e-02  1.290360e-02  -9.376096e-01  2.939977e-01  -9.381448e-01  2.941008e-01  2.580670e-02  1.040822e-02
5.000000e+00  1.940111e-02  1.295129e-02  -9.074509e-01  3.767556e-01  -9.079761e-01  3.769046e-01  2.718083e-02  9.895449e-03
