! Generated by EMerge - 2-port S-parameters
! File generated: 2025-07-03 19:29 
! W0 = 1.1 mm
! L0 = 1.1 mm
! Substrate: RO4003C
! h = 0.508 mm
! Air box height = 5.08 mm
! Run time = 0.0 min
# GHZ S MA R 50
1.000000e-01  5.884720e-03  2.613785e+01  9.947335e-01  1.759702e+02  9.947200e-01  1.759751e+02  5.889125e-03  2.611716e+01
1.487179e-01  6.674824e-03  3.506775e+01  9.946906e-01  1.740086e+02  9.946771e-01  1.740135e+02  6.683271e-03  3.501096e+01
1.974359e-01  7.644374e-03  4.145835e+01  9.946472e-01  1.720470e+02  9.946337e-01  1.720519e+02  7.657187e-03  4.135486e+01
2.461538e-01  8.729312e-03  4.586255e+01  9.946032e-01  1.700855e+02  9.945898e-01  1.700903e+02  8.746504e-03  4.570763e+01
2.948718e-01  9.886684e-03  4.880838e+01  9.945588e-01  1.681239e+02  9.945454e-01  1.681287e+02  9.908140e-03  4.860048e+01
3.435897e-01  1.108839e-02  5.069872e+01  9.945140e-01  1.661623e+02  9.945006e-01  1.661671e+02  1.111395e-02  5.043767e+01
3.923077e-01  1.231572e-02  5.181976e+01  9.944688e-01  1.642007e+02  9.944555e-01  1.642055e+02  1.234521e-02  5.150590e+01
4.410256e-01  1.355580e-02  5.237138e+01  9.944233e-01  1.622391e+02  9.944101e-01  1.622439e+02  1.358904e-02  5.200518e+01
4.897436e-01  1.479936e-02  5.249386e+01  9.943776e-01  1.602775e+02  9.943644e-01  1.602823e+02  1.483617e-02  5.207575e+01
5.384615e-01  1.603944e-02  5.228704e+01  9.943317e-01  1.583159e+02  9.943185e-01  1.583207e+02  1.607965e-02  5.181736e+01
5.871795e-01  1.727062e-02  5.182319e+01  9.942857e-01  1.563543e+02  9.942726e-01  1.563591e+02  1.731404e-02  5.130218e+01
6.358974e-01  1.848846e-02  5.115560e+01  9.942397e-01  1.543927e+02  9.942267e-01  1.543975e+02  1.853492e-02  5.058338e+01
6.846154e-01  1.968928e-02  5.032422e+01  9.941937e-01  1.524311e+02  9.941809e-01  1.524358e+02  1.973859e-02  4.970083e+01
7.333333e-01  2.086987e-02  4.935950e+01  9.941480e-01  1.504695e+02  9.941352e-01  1.504742e+02  2.092183e-02  4.868489e+01
7.820513e-01  2.202740e-02  4.828500e+01  9.941026e-01  1.485079e+02  9.940898e-01  1.485126e+02  2.208184e-02  4.755905e+01
8.307692e-01  2.315936e-02  4.711924e+01  9.940575e-01  1.465462e+02  9.940449e-01  1.465509e+02  2.321606e-02  4.634174e+01
8.794872e-01  2.426341e-02  4.587692e+01  9.940129e-01  1.445845e+02  9.940004e-01  1.445892e+02  2.432217e-02  4.504760e+01
9.282051e-01  2.533743e-02  4.456988e+01  9.939689e-01  1.426228e+02  9.939566e-01  1.426275e+02  2.539804e-02  4.368842e+01
9.769231e-01  2.637943e-02  4.320775e+01  9.939257e-01  1.406611e+02  9.939134e-01  1.406658e+02  2.644166e-02  4.227375e+01
1.025641e+00  2.738756e-02  4.179844e+01  9.938833e-01  1.386994e+02  9.938711e-01  1.387040e+02  2.745119e-02  4.081146e+01
1.074359e+00  2.836005e-02  4.034854e+01  9.938418e-01  1.367376e+02  9.938298e-01  1.367422e+02  2.842485e-02  3.930806e+01
1.123077e+00  2.929528e-02  3.886353e+01  9.938014e-01  1.347758e+02  9.937895e-01  1.347804e+02  2.936100e-02  3.776901e+01
1.171795e+00  3.019167e-02  3.734808e+01  9.937621e-01  1.328139e+02  9.937504e-01  1.328185e+02  3.025807e-02  3.619891e+01
1.220513e+00  3.104776e-02  3.580614e+01  9.937241e-01  1.308519e+02  9.937126e-01  1.308565e+02  3.111458e-02  3.460164e+01
1.269231e+00  3.186215e-02  3.424111e+01  9.936876e-01  1.288899e+02  9.936762e-01  1.288945e+02  3.192912e-02  3.298057e+01
1.317949e+00  3.263353e-02  3.265594e+01  9.936525e-01  1.269278e+02  9.936413e-01  1.269324e+02  3.270038e-02  3.133858e+01
1.366667e+00  3.336066e-02  3.105320e+01  9.936190e-01  1.249656e+02  9.936079e-01  1.249702e+02  3.342711e-02  2.967817e+01
1.415385e+00  3.404238e-02  2.943514e+01  9.935871e-01  1.230034e+02  9.935763e-01  1.230079e+02  3.410812e-02  2.800154e+01
1.464103e+00  3.467759e-02  2.780377e+01  9.935571e-01  1.210410e+02  9.935464e-01  1.210455e+02  3.474233e-02  2.631064e+01
1.512821e+00  3.526527e-02  2.616086e+01  9.935289e-01  1.190785e+02  9.935184e-01  1.190830e+02  3.532868e-02  2.460716e+01
1.561538e+00  3.580447e-02  2.450803e+01  9.935026e-01  1.171159e+02  9.934924e-01  1.171204e+02  3.586624e-02  2.289267e+01
1.610256e+00  3.629431e-02  2.284674e+01  9.934784e-01  1.151531e+02  9.934683e-01  1.151576e+02  3.635409e-02  2.116853e+01
1.658974e+00  3.673399e-02  2.117833e+01  9.934562e-01  1.131902e+02  9.934463e-01  1.131947e+02  3.679143e-02  1.943602e+01
1.707692e+00  3.712277e-02  1.950402e+01  9.934361e-01  1.112271e+02  9.934265e-01  1.112316e+02  3.717751e-02  1.769628e+01
1.756410e+00  3.745998e-02  1.782499e+01  9.934182e-01  1.092639e+02  9.934088e-01  1.092684e+02  3.751164e-02  1.595038e+01
1.805128e+00  3.774503e-02  1.614232e+01  9.934025e-01  1.073005e+02  9.933933e-01  1.073049e+02  3.779323e-02  1.419932e+01
1.853846e+00  3.797741e-02  1.445705e+01  9.933890e-01  1.053368e+02  9.933801e-01  1.053413e+02  3.802173e-02  1.244404e+01
1.902564e+00  3.815667e-02  1.277019e+01  9.933778e-01  1.033730e+02  9.933690e-01  1.033774e+02  3.819669e-02  1.068543e+01
1.951282e+00  3.828243e-02  1.108272e+01  9.933688e-01  1.014089e+02  9.933603e-01  1.014133e+02  3.831772e-02  8.924350e+00
2.000000e+00  3.835439e-02  9.395611e+00  9.933620e-01  9.944464e+01  9.933538e-01  9.944903e+01  3.838449e-02  7.161648e+00
